# GHZ S RI R 50.000000000000
0.001000000000 -0.001682478977 0.006009027553 0.997096969162 -0.093098994155 0.981592621677 -0.104831931228 0.009814959702 0.008036276316
0.001599959000 0.006357205354 0.009969304071 0.982787384824 -0.156520448683 0.987942648898 -0.156858912997 0.005959467178 0.010553637498
0.002199919000 0.006687828799 0.013549792258 0.974603934194 -0.215713899767 0.970344075747 -0.214534359882 0.008168826514 0.012717171195
0.002799879000 0.005495015243 0.018657761112 0.961975303596 -0.268897091248 0.948791656237 -0.271103571176 0.011615520530 0.015301462594
0.003399839000 0.010678463080 0.019070178435 0.938387960057 -0.328044260002 0.938466418273 -0.326588588080 0.010882896822 0.018660028023
0.003999799000 0.012949290791 0.021428478818 0.917517510829 -0.381783564819 0.917773869160 -0.381191956998 0.013385305020 0.021229954249
0.004599759000 0.015500353098 0.023361175786 0.892585330220 -0.434854485851 0.892769035962 -0.434624672716 0.015999135589 0.023154942295
0.005199719000 0.018496065066 0.024510277000 0.863212446748 -0.485932360694 0.866736091369 -0.485588344955 0.018776130694 0.025213775386
0.005799679000 0.021247980553 0.026066292347 0.834575708510 -0.535943483817 0.834913632823 -0.535901002167 0.021893965227 0.025461779144
0.006399639000 0.022487353970 0.027192986339 0.802411869093 -0.581437779904 0.804562348258 -0.586946109100 0.025670894260 0.024087950247
0.006999599000 0.026989288497 0.026935520708 0.764986722779 -0.629010390184 0.765449223203 -0.629376169172 0.028008205767 0.026040754731
0.007599559000 0.029682868811 0.026725735320 0.726737113675 -0.672501635715 0.726646651371 -0.673651125048 0.030768932112 0.025390468825
0.008199519000 0.032386220960 0.025753411240 0.685056365185 -0.713504149983 0.684762471966 -0.714407414785 0.033463557857 0.024406746770
0.008799479000 0.034692115332 0.024794139346 0.641631417604 -0.751965167259 0.641055685830 -0.753043284002 0.035903636864 0.023115028354
0.009399439000 0.036711492208 0.022998103535 0.595613787997 -0.788083822854 0.595420604979 -0.789021974765 0.037751497456 0.021253385561
0.009999399000 0.038263628631 0.020931032081 0.548135354473 -0.822012974066 0.547501684008 -0.822660452249 0.039426656230 0.018955403797
0.010599359000 0.039574739053 0.018808837453 0.497969188293 -0.852557242139 0.498145508236 -0.853083324046 0.040603705156 0.016604088817
0.011199319000 0.040377334350 0.016579716916 0.446682286856 -0.880169251620 0.446112864953 -0.881107143945 0.041344078352 0.013995002562
0.011799279000 0.040683068520 0.014064498595 0.393906343073 -0.904627172504 0.393218456316 -0.905511499630 0.041517437409 0.011031631090
0.012399239000 0.040414061023 0.011559147749 0.339120442475 -0.925996669465 0.338068485492 -0.926884977816 0.041216187352 0.008228114845
0.012999199000 0.039702924973 0.008673591159 0.283333754780 -0.944332106094 0.282617503567 -0.944856420883 0.040278365219 0.005311136643
0.013599159000 0.038601342703 0.006228072323 0.226671108119 -0.959322891849 0.225633792049 -0.959680433485 0.039062693448 0.002799231069
0.014199119000 0.036977424129 0.003795902088 0.168872980781 -0.970795416788 0.167768442662 -0.971349956483 0.037111715223 0.000164777753
0.014799079000 0.034903276988 0.001511182699 0.110320991996 -0.979226701388 0.108942492711 -0.979618454947 0.034754664289 -0.002086639140
0.015399039000 0.032449084336 -0.000566315527 0.051138256541 -0.984012945285 0.049801896390 -0.984351080005 0.032029383606 -0.004084351587
0.015998999000 0.029465645461 -0.002341533396 -0.008334962796 -0.985235590574 -0.009607186163 -0.985428822514 0.028937863311 -0.005914376123
0.016598959000 0.025992305264 -0.003774598921 -0.067768796197 -0.983113877969 -0.069625147788 -0.983003078804 0.025306642407 -0.007356855315
0.017198919000 0.022406578001 -0.004725495922 -0.127632967330 -0.977001097612 -0.128892056756 -0.976804817090 0.021494893116 -0.008175325329
0.017798879000 0.018383317066 -0.005262567066 -0.187302943916 -0.967526621849 -0.188469444471 -0.967274562241 0.017311843751 -0.008673257155
0.018398839000 0.014608937722 -0.004974599560 -0.246255174693 -0.954185398490 -0.247838125314 -0.953556301632 0.013326820864 -0.008363356100
0.018998799000 0.010323521089 -0.004635426633 -0.304664544131 -0.936901230670 -0.305599905737 -0.936475555075 0.009138171156 -0.007746186365
0.019598759000 0.006712614550 -0.003407624148 -0.361943399190 -0.915876813755 -0.362830395616 -0.915197969595 0.004795988432 -0.006435783459
0.020198719000 0.002700168324 -0.001772673678 -0.417974014005 -0.891388278870 -0.418848328846 -0.890323030481 0.000945335867 -0.004844502329
0.020798679000 -0.000945931795 0.000087337861 -0.472330203949 -0.863030886734 -0.473181800870 -0.862453607261 -0.002879139871 -0.002544428543
0.021398639000 -0.004385506539 0.002389061586 -0.525086998745 -0.831601456332 -0.526035472898 -0.830468865591 -0.006316268265 0.000174384462
0.021998599000 -0.007488884287 0.005290940485 -0.575989233475 -0.796571544653 -0.576633865256 -0.795471337616 -0.009503354759 0.003256299949
0.022598559000 -0.010231754705 0.008371728982 -0.624957829987 -0.758284978470 -0.625030874572 -0.757528107160 -0.012230041311 0.006771673129
0.023198519000 -0.012319842272 0.011779389515 -0.671210806832 -0.716825499438 -0.671847760027 -0.715614567059 -0.014299749184 0.010401791622
0.023798479000 -0.014188798016 0.015294400556 -0.715244237218 -0.671912603051 -0.715575292407 -0.671030129008 -0.015947573718 0.014346366848
0.024398439000 -0.015367927312 0.018872140103 -0.756374165446 -0.624548084852 -0.756806316470 -0.623466071043 -0.016945736633 0.018231860452
0.024998399000 -0.016043638922 0.022535110475 -0.794515697727 -0.574343373949 -0.794513523825 -0.573672692106 -0.017369737553 0.022351006635
0.025598359000 -0.015014909517 0.024684088699 -0.837005183336 -0.508225167090 -0.835489335789 -0.513674087232 -0.016895112107 0.023618859421
0.026198319000 -0.014763499901 0.027929439856 -0.867477486042 -0.453784625644 -0.866558683776 -0.458372375593 -0.016191677934 0.027729841569
0.026798279000 -0.013947291701 0.031003706184 -0.894477004114 -0.396798533822 -0.893898396179 -0.401032163848 -0.014804541710 0.031439335584
0.027398239000 -0.012768515226 0.033733851202 -0.917815904684 -0.338460151845 -0.917281586810 -0.342583518664 -0.012872018522 0.034594194066
0.027998199000 -0.011226626944 0.035678310635 -0.937223206733 -0.278884250577 -0.937178434203 -0.281731199387 -0.010620512335 0.036827993778
0.028598159000 -0.009281544573 0.037135539288 -0.952867504317 -0.217889475803 -0.952699281787 -0.220098728496 -0.007964966000 0.038266486293
0.029198119000 -0.007306133102 0.037885450951 -0.964040441687 -0.156191274173 -0.964284481075 -0.156803260253 -0.005250624375 0.038790150383
0.029798079000 -0.005051138131 0.038259117148 -0.971381419937 -0.093041454941 -0.971283968800 -0.093262391942 -0.002489531280 0.038815865491
0.030398039000 -0.002725747493 0.037725119480 -0.974458386778 -0.028320108891 -0.974490298121 -0.028201300488 0.000518939708 0.038302181328
0.030997999000 -0.000780293779 0.035958460263 -0.973120858338 0.038675345080 -0.973123829209 0.039110714720 0.003036939414 0.036116716636
0.031597959000 0.001078491635 0.033794366078 -0.967836055443 0.105675122086 -0.967817992836 0.105633910181 0.005226730446 0.033712128340
0.032197919000 0.002280285419 0.030748831486 -0.957234683635 0.172923117931 -0.957577941870 0.172671938152 0.006799688887 0.030388303574
0.032797879000 0.002820337623 0.027060727350 -0.941749069672 0.240595955307 -0.942080166760 0.239900927963 0.007440227351 0.026468495290
0.033397839000 0.002655185839 0.022735164484 -0.921310031434 0.307187899128 -0.922008964515 0.306305497490 0.007174494954 0.021842437660
0.033997799000 0.001576467091 0.018027001142 -0.895595303009 0.373181409133 -0.896725407685 0.371822778293 0.006020531267 0.016464429827
0.034597759000 -0.000437387514 0.012904394916 -0.865293327691 0.437126097028 -0.867055056952 0.435299684323 0.003961216516 0.010655611489
0.035197719000 -0.003370809365 0.007567458716 -0.829917275495 0.499239965590 -0.832504417273 0.497336191362 0.000848131381 0.004959222548
0.035797679000 -0.007249327171 0.002335039629 -0.789926651890 0.558919808383 -0.792735119629 0.556545737495 -0.003310622205 -0.000704592264
0.036397639000 -0.012296632311 -0.002682108365 -0.745382800042 0.615746256785 -0.748331954716 0.613759754402 -0.008436413373 -0.005902701243
0.036997599000 -0.018063054670 -0.007348990712 -0.696273660791 0.669251075025 -0.699519792632 0.667307483938 -0.014435664121 -0.010840322808
0.037597559000 -0.024752271157 -0.011508138245 -0.642876705901 0.719185172696 -0.646515840388 0.717365187079 -0.021465097015 -0.014956929544
0.038197519000 -0.032385580091 -0.014987836208 -0.585199535221 0.765239325227 -0.589044500041 0.763686549866 -0.029268157508 -0.018188343397
0.038797479000 -0.040718352848 -0.017399113601 -0.523649837925 0.806921139998 -0.527313720929 0.805994307683 -0.037750505940 -0.020305871341
0.039397439000 -0.049527739262 -0.018928303150 -0.457941867613 0.844214367089 -0.462050282740 0.843178333423 -0.046831190694 -0.021190199001
0.039997399000 -0.058626223803 -0.019292571107 -0.389104193060 0.876244285612 -0.393480987363 0.875449103286 -0.056096397477 -0.020738296362
0.040597359000 -0.067680337731 -0.018537124741 -0.317570532002 0.902623140721 -0.322358023463 0.902233919433 -0.065474275807 -0.018691131031
0.041197319000 -0.076559622064 -0.016274043542 -0.243300308354 0.923365860057 -0.247916649643 0.923326392649 -0.074436613604 -0.014988719998
0.041797279000 -0.084788822251 -0.012839685212 -0.166671157516 0.938291552360 -0.171166686496 0.938697300908 -0.082723204373 -0.009656941961
0.042397239000 -0.092212301015 -0.008362257612 -0.088602198265 0.946603548027 -0.092942913886 0.947569582069 -0.089827638809 -0.002972879974
0.042997199000 -0.098470356686 -0.002900496198 -0.008031416946 0.948738916087 -0.012448195046 0.950065200527 -0.095245784181 0.005222350737
0.043597159000 -0.102947768538 0.003103264681 0.072484043100 0.943883844006 0.067964345964 0.945693951595 -0.098716576378 0.014283640979
0.044197119000 -0.105591616447 0.009267312753 0.153748497549 0.932010253593 0.149128808276 0.934178657626 -0.099558917384 0.023996985406
0.044797079000 -0.106281232762 0.015117937889 0.234839115071 0.913150974244 0.230463608654 0.915605957036 -0.097640134666 0.033859200300
0.045397039000 -0.104691604195 0.020112009872 0.314963981841 0.886830849240 0.311195128658 0.889368862394 -0.092636265358 0.043055350101
0.045996999000 -0.100661010437 0.023480665648 0.394501961076 0.852603606612 0.391642885793 0.855355053086 -0.083814861581 0.050837697238
0.046596959000 -0.094671526356 0.024320073087 0.471935589145 0.810235540298 0.469150570552 0.813402792444 -0.071453444872 0.055884770352
0.047196919000 -0.086878795724 0.021747854920 0.547166758335 0.759336657252 0.544598350122 0.762842439766 -0.056071917542 0.057443303492
0.047796879000 -0.077878115446 0.015040785126 0.618935580431 0.699737603411 0.616664205794 0.703448883542 -0.037448467665 0.054178406047
0.048396839000 -0.068690393019 0.002974518487 0.686168917013 0.630625364549 0.684459559481 0.634301900494 -0.016723997106 0.044384794226
0.048996799000 -0.060614558101 -0.015135860309 0.747057024042 0.551794773486 0.745879604645 0.555311263953 0.004617445888 0.026951607424
0.049596759000 -0.055521977425 -0.039990865244 0.800138513325 0.462828735595 0.799143403676 0.466837218239 0.024742704420 0.000449133087
0.050196719000 -0.055546657089 -0.071606994037 0.842557565528 0.364822761166 0.842186438086 0.368457531480 0.041267669067 -0.035828127971
0.050796679000 -0.063400038384 -0.109369178892 0.872063967520 0.257717283795 0.872079577918 0.260758372792 0.051058928342 -0.082021388768
0.051396639000 -0.081661552710 -0.151975139227 0.885437192487 0.143231874168 0.885862900619 0.146481845481 0.050424623634 -0.137220057932
0.051996599000 -0.113110674166 -0.196537523733 0.879896727669 0.024491783961 0.880331979648 0.028026115443 0.035396477131 -0.199384835049
0.052596559000 -0.159196176490 -0.239175271353 0.852498597362 -0.093486163558 0.853340450772 -0.090128534986 0.003031801752 -0.264318245744
0.053196519000 -0.220534649621 -0.274993473031 0.803146062913 -0.205963351842 0.804710957089 -0.202214446147 -0.048834060869 -0.326835841281
0.053796479000 -0.295305187629 -0.298437704556 0.732881024430 -0.305913616406 0.734879595099 -0.302345453611 -0.119586902306 -0.380586971783
0.054396439000 -0.379385716842 -0.305786265719 0.645349576173 -0.387919641954 0.648242052544 -0.384129824008 -0.206287420271 -0.419094309885
0.054996399000 -0.467556371082 -0.293944505524 0.546473010066 -0.448003943513 0.550400614354 -0.444161008778 -0.303772158788 -0.437949332941
0.055596359000 -0.553321124541 -0.262571012905 0.443476932274 -0.484196984776 0.448717920496 -0.480641918837 -0.405208770745 -0.434850538905
0.056196319000 -0.631651121934 -0.214051733831 0.343424272749 -0.497679233112 0.349194405963 -0.494800179779 -0.504164613204 -0.410263740514
0.056796279000 -0.698441604502 -0.151498290454 0.251594025364 -0.491895550701 0.258295788539 -0.489646150534 -0.594945882438 -0.366601959248
0.057396239000 -0.751501899616 -0.079734709543 0.171451284549 -0.471490427664 0.178480841349 -0.470206767835 -0.674036434868 -0.308187829118
0.057996199000 -0.790164526238 -0.002921820812 0.104651057027 -0.441307108212 0.111776373076 -0.440828481684 -0.739124973887 -0.239437373698
0.058596159000 -0.815551235541 0.075831698460 0.050938794088 -0.405433601696 0.057883935304 -0.405653692674 -0.789913431590 -0.164696461004
0.059196119000 -0.828912419512 0.153325270034 0.009201077906 -0.367305097543 0.015715601442 -0.368230869827 -0.826989040987 -0.086916694249
0.059796079000 -0.831995224005 0.227683997699 -0.022280601677 -0.329208655349 -0.016207351979 -0.330625558383 -0.852066913947 -0.009011209287
0.060396039000 -0.826533628145 0.297576834639 -0.045053202983 -0.292771302534 -0.039799251927 -0.294479652591 -0.866511155329 0.066426569422
0.060995999000 -0.814501679599 0.362659673497 -0.061349305203 -0.258816838048 -0.056404739417 -0.260742153121 -0.871995751416 0.138784077955
0.061595959000 -0.796954645070 0.422335367840 -0.072323920331 -0.227704500616 -0.067984131607 -0.229895578907 -0.870006987847 0.206263043783
0.062195919000 -0.775861245342 0.476957509843 -0.079640513708 -0.199699868612 -0.075603444077 -0.202154003216 -0.862704957076 0.268694069149
0.062795879000 -0.752200580455 0.527450490422 -0.083366290294 -0.175113219570 -0.079800657836 -0.177533749115 -0.850639317537 0.327915530646
0.063395839000 -0.725879722278 0.573840490930 -0.084520440778 -0.153395739860 -0.081527067386 -0.155625676651 -0.835113496878 0.383249139673
0.063995799000 -0.698176379257 0.615188240895 -0.084060900409 -0.134062590655 -0.081527288264 -0.136271928471 -0.816335312531 0.434198830652
0.064595759000 -0.669182443441 0.653132688687 -0.082498831315 -0.117118255712 -0.080265446297 -0.119233072144 -0.795060539002 0.481540213605
0.065195719000 -0.639855086865 0.687020032189 -0.080065117462 -0.102292304866 -0.078049923395 -0.104254558449 -0.772321643162 0.524644666682
0.065795679000 -0.609970091210 0.717939601567 -0.076987171623 -0.089337513077 -0.075357917364 -0.091218662656 -0.748592387457 0.564065920111
0.066395639000 -0.580139530096 0.745570424523 -0.073630229471 -0.077995121983 -0.072182298984 -0.079730262572 -0.723951912427 0.600477376185
0.066995599000 -0.550338372018 0.770910146817 -0.070066589810 -0.068144028192 -0.068870098201 -0.069689352305 -0.697988137723 0.634026581770
0.067595559000 -0.520857154478 0.793651234021 -0.066474514047 -0.059358423310 -0.065351889044 -0.060969521326 -0.672434999314 0.664817253638
0.068195519000 -0.491571174877 0.814138726380 -0.062813611990 -0.051856833189 -0.061877448102 -0.053247720686 -0.646416589044 0.692738739316
0.068795479000 -0.462779107118 0.832886880933 -0.059257907000 -0.045262977000 -0.058367139075 -0.046617745397 -0.620226120658 0.718746761406
0.069395439000 -0.434636006737 0.849514260197 -0.055722166443 -0.039547736696 -0.054977274712 -0.040647196152 -0.594696045751 0.742090026857
0.069995399000 -0.406592616933 0.864660685154 -0.052284344190 -0.034544338930 -0.051690005476 -0.035630143102 -0.568872415489 0.764030119423
0.070595359000 -0.379419751387 0.877988794971 -0.049073896991 -0.030065866916 -0.048568840532 -0.031141862237 -0.543396507497 0.783918782663
0.071195319000 -0.352775674297 0.890284589396 -0.046040812045 -0.026237276263 -0.045590823794 -0.027189314000 -0.518086740438 0.802324696543
0.071795279000 -0.326487722328 0.901102683624 -0.043085717542 -0.022829619332 -0.042683648743 -0.023716082041 -0.493282787439 0.819126987892
0.072395239000 -0.301072131215 0.911091318438 -0.040333484079 -0.019887551603 -0.040011179862 -0.020727582970 -0.469120829293 0.834643798562
0.072995199000 -0.276133753822 0.919613421652 -0.037740235815 -0.017253749328 -0.037483776269 -0.018069255163 -0.444825104724 0.848929157515
0.073595159000 -0.251427188124 0.927291994951 -0.035312741737 -0.015003665042 -0.035087440611 -0.015755778855 -0.420861553638 0.861894799909
0.074195119000 -0.227298458772 0.934313130344 -0.033078041570 -0.012951479513 -0.032870558953 -0.013708352844 -0.397156133685 0.873918361751
0.074795079000 -0.204206056179 0.940185033715 -0.030867498170 -0.011295520202 -0.030722583042 -0.011839092214 -0.374344883164 0.884600212140
0.075395039000 -0.181633615312 0.945500701075 -0.028859571029 -0.009706016888 -0.028732027524 -0.010298314700 -0.351572845051 0.894885162280
0.075994999000 -0.159145176921 0.950135930279 -0.027043732547 -0.008349045187 -0.026905765577 -0.008866922493 -0.329538395651 0.903755823239
0.076594959000 -0.137608693306 0.954197575498 -0.025254119119 -0.007206649142 -0.025171723003 -0.007668922131 -0.307576453616 0.912080593928
0.077194919000 -0.116092262882 0.957039042307 -0.023610220200 -0.006078338457 -0.023534256504 -0.006575855817 -0.286467940231 0.919558674594
0.077794879000 -0.095248056874 0.960150816631 -0.022070235393 -0.005242336851 -0.022054450211 -0.005628017748 -0.265668916225 0.926427125506
0.078394839000 -0.075099126595 0.962292654002 -0.020691255012 -0.004383081758 -0.020616459329 -0.004822520079 -0.245234817498 0.932685262576
0.078994799000 -0.055500295846 0.964078935172 -0.019375337500 -0.003741969154 -0.019354118774 -0.004085527613 -0.225455346736 0.938045067696
0.079594759000 -0.035918930407 0.965367707431 -0.018161827656 -0.003097429833 -0.018099337310 -0.003394534789 -0.205587530218 0.942998909675
0.080194719000 -0.017255497715 0.966020765634 -0.016986153816 -0.002581733694 -0.016941099497 -0.002857861172 -0.186528639622 0.947395262513
0.080794679000 0.001282912833 0.966871290268 -0.015900720014 -0.002115836749 -0.015932902068 -0.002347151719 -0.167955568660 0.951388977992
0.081394639000 0.019683108445 0.966924680259 -0.014886929032 -0.001625879635 -0.014885422924 -0.001928831377 -0.149466528759 0.954881435913
0.081994599000 0.037183502678 0.966882590042 -0.013938600576 -0.001304211485 -0.013948079034 -0.001485100255 -0.131136781172 0.958115366456
0.082594559000 0.054346550579 0.966152933042 -0.013084610253 -0.001004024535 -0.013100009372 -0.001213712992 -0.113672068073 0.960544529159
0.083194519000 0.071601786433 0.965212643428 -0.012271390016 -0.000722757311 -0.012250730835 -0.000899198870 -0.096689701577 0.962538581525
0.083794479000 0.088143664949 0.964391561914 -0.011514353973 -0.000448758134 -0.011507605138 -0.000616913441 -0.079489525185 0.964772555769
0.084394439000 0.104380124918 0.963031084027 -0.010771776264 -0.000221511030 -0.010792466931 -0.000439092264 -0.062783967444 0.966464083723
0.084994399000 0.119861199737 0.961622154203 -0.010132276738 -0.000055483585 -0.010144068265 -0.000236568183 -0.046711727128 0.967657315102
0.085594359000 0.135355747402 0.959721192852 -0.009508307687 0.000124418555 -0.009562624953 -0.000033314185 -0.030876960178 0.968485557878
0.086194319000 0.150441106524 0.958081597246 -0.008910671242 0.000233751071 -0.008917093548 0.000081192320 -0.015380658828 0.969097218128
