!Keysight	Technologies	N5244A	MY52442000	A.10.40.14				
!Date:	Thursday	February	14	2019	19:00:01			
!Correction:	S11(Full	2	Port(1	2))				
!S21(Full	2	Port(1	2))					
!S12(Full	2	Port(1	2))					
!S22(Full	2	Port(1	2))					
!S2P	File:	Measurements:	S11	S21	S12	S22:		
#	Hz	S	dB	R	50			
10000000	-49.990032	92.685799	-0.025540868	-0.94335961	-0.007417241	-0.99411613	-44.570454	80.143723
20000000	-42.381638	17.094461	-0.05241159	-1.6162709	-0.049819583	-1.6136035	-47.688164	54.748978
30000000	-46.201008	22.292614	-0.062364074	-2.3754597	-0.057876012	-2.3505251	-45.085152	36.88662
40000000	-44.296898	54.586231	-0.050042884	-3.2160153	-0.050938414	-3.1689823	-45.318279	33.348251
50000000	-45.325115	42.594444	-0.062291503	-3.9989071	-0.063216386	-4.0060353	-44.500294	32.266361
60000000	-43.382603	46.374733	-0.058774725	-4.7714982	-0.067703592	-4.8216777	-42.932793	30.74523
70000000	-42.452538	44.770878	-0.058123767	-5.5859518	-0.060044545	-5.5669041	-42.777206	39.175419
80000000	-42.804749	38.050049	-0.06388797	-6.3258824	-0.058434365	-6.3342886	-42.801498	34.385265
90000000	-41.578556	42.235504	-0.06701234	-7.0897636	-0.067607105	-7.1651521	-42.068893	32.075245
100000000	-41.251953	35.714664	-0.033659958	-7.8973098	-0.036550672	-7.9044943	-42.713589	44.057232
200000000	-40.490757	16.315863	-0.034306991	-15.581635	-0.034027349	-15.596583	-40.407719	20.568048
300000000	-37.510265	9.9103365	-0.034878839	-23.238371	-0.034183991	-23.252983	-38.017979	13.356457
400000000	-38.988819	-0.23216949	-0.028598145	-30.877192	-0.028416142	-30.88936	-38.610371	-8.1344233
500000000	-37.286015	-14.678191	-0.029259292	-38.474174	-0.028950162	-38.483654	-37.74704	-9.8560839
600000000	-36.666195	-20.597193	-0.029402357	-46.107758	-0.034455607	-46.115028	-37.014446	-22.709103
700000000	-37.319202	-33.0611	-0.031319225	-53.718975	-0.030985215	-53.704922	-37.202633	-31.258804
800000000	-37.670952	-52.797829	-0.02773836	-61.317936	-0.02759604	-61.307541	-38.907848	-51.846897
900000000	-37.004089	-58.674938	-0.03564861	-68.858086	-0.03350876	-68.874603	-37.8871	-53.340164
1000000000	-38.228996	-71.513947	-0.02589149	-76.466286	-0.02682868	-76.456467	-38.329979	-74.389404
1100000000	-37.44363	-80.312988	-0.0229592	-84.043381	-0.02543844	-84.055984	-39.101143	-79.080864
1200000000	-37.704208	-87.342804	-0.02640484	-91.651237	-0.02673582	-91.634506	-38.730377	-92.560875
1300000000	-37.866989	-98.815697	-0.02397072	-99.231079	-0.0244698	-99.238457	-39.684978	-101.27479
1400000000	-37.934299	-117.89102	-0.02418025	-106.80949	-0.0240362	-106.8179	-39.91721	-119.46982
1500000000	-37.505028	-123.45747	-0.01655276	-114.38466	-0.02006495	-114.38543	-40.633663	-128.79347
1600000000	-38.758385	-139.05655	-0.01605195	-121.97689	-0.01829806	-121.97258	-40.030914	-142.42392
1700000000	-38.221878	-148.97311	-0.02196064	-129.53546	-0.02428169	-129.54932	-40.603218	-159.65567
1800000000	-39.815075	-168.84541	-0.02028431	-137.13477	-0.02184808	-137.13213	-40.912968	-173.46693
1900000000	-39.289425	-176.57001	-0.02236703	-144.69348	-0.01846667	-144.68816	-40.836681	167.01234
2000000000	-40.555874	159.22572	-0.01317578	-152.26289	-0.01925663	-152.26546	-40.797207	148.91553
2100000000	-39.52594	154.75867	-0.02014088	-159.84647	-0.01891473	-159.82767	-42.142937	121.12402
2200000000	-41.898178	139.57355	-0.0199685	-167.3909	-0.0182159	-167.41116	-42.242233	112.53914
2300000000	-40.874111	115.63204	-0.01197745	-174.97992	-0.01249392	-174.96164	-40.664425	91.211617
2400000000	-43.456615	102.72812	-0.01007446	177.46466	-0.00857108	177.48048	-42.917152	75.788971
2500000000	-46.904381	93.211632	-0.01190806	169.9016	-0.01339269	169.90767	-45.556034	54.629681
2600000000	-52.050266	54.440193	-0.01420119	162.33829	-0.01555744	162.32732	-46.25771	22.658321
2700000000	-64.664864	25.648483	-0.00873002	154.75328	-0.0130147	154.75531	-46.577602	-25.038696
2800000000	-48.604076	-72.874611	-0.00786593	147.19128	-0.00881588	147.18288	-44.985802	-60.178993
2900000000	-45.144421	-90.36792	-0.00724435	139.62732	-0.00684908	139.6322	-44.231552	-85.41967
3000000000	-40.340687	-103.91924	-0.01092691	132.04594	-0.01302654	132.05011	-40.62775	-105.01659
3100000000	-37.647141	-121.66138	-0.01192519	124.4659	-0.01025087	124.46685	-37.330055	-121.57118
3200000000	-35.036247	-129.90192	-0.01574805	116.89411	-0.0176543	116.87552	-35.66621	-133.707
3300000000	-34.02877	-143.03981	-0.01800692	109.30686	-0.0176329	109.30634	-33.624271	-140.64229
3400000000	-31.298407	-154.39308	-0.01522669	101.71557	-0.01380804	101.7103	-31.510887	-155.75954
3500000000	-30.371162	-160.12483	-0.02393731	94.138	-0.02463001	94.134109	-30.342518	-162.65625
3600000000	-28.686041	-170.17845	-0.02492413	86.529884	-0.02596298	86.522697	-28.821955	-173.43892
3700000000	-27.61647	-176.6787	-0.03852424	78.933929	-0.03471533	78.924278	-27.861204	176.09628
3800000000	-26.244286	173.0152	-0.04308504	71.336617	-0.0424369	71.33358	-26.312206	167.46378
3900000000	-25.334774	165.98825	-0.04765808	63.751728	-0.04635802	63.760773	-25.621569	159.51616
4000000000	-24.274361	156.54417	-0.05186248	56.165413	-0.05195501	56.164646	-24.394884	151.46268
4100000000	-23.447798	148.44231	-0.05467486	48.571705	-0.05601883	48.560062	-23.600225	142.56461
4200000000	-22.408195	140.17343	-0.06099963	40.993408	-0.06369564	40.986919	-22.529057	134.91684
4300000000	-22.04948	132.74503	-0.06924287	33.406807	-0.06790239	33.422352	-22.091518	126.35077
4400000000	-21.149017	123.50735	-0.07331351	25.866577	-0.07462427	25.847343	-21.124706	118.10358
4500000000	-20.751661	116.94578	-0.07047972	18.306271	-0.07121423	18.303814	-20.756847	109.57368
4600000000	-20.205149	107.73141	-0.0732283	10.739038	-0.07520461	10.716117	-20.167397	102.16685
4700000000	-19.675808	100.70258	-0.07483965	3.1914058	-0.07342255	3.1976616	-19.794027	92.338333
4800000000	-19.195328	91.76078	-0.08362689	-4.3447237	-0.0819309	-4.3484287	-19.207615	85.68026
4900000000	-18.878239	84.870338	-0.0865086	-11.849774	-0.08621415	-11.862602	-18.83308	76.857353
5000000000	-18.624098	76.147293	-0.09174791	-19.377777	-0.08776406	-19.396925	-18.547953	69.91008
5100000000	-18.32555	68.097214	-0.09020522	-26.882669	-0.09218183	-26.891031	-18.248066	61.86623
5200000000	-18.14105	60.272411	-0.08336237	-34.36684	-0.08679029	-34.390057	-18.064611	54.567528
5300000000	-18.008656	52.972614	-0.0844532	-41.873642	-0.08457688	-41.873955	-17.866484	46.35545
5400000000	-17.806459	44.920109	-0.08660224	-49.353394	-0.08610675	-49.365952	-17.721632	39.14883
5500000000	-17.702614	38.231457	-0.08437366	-56.82832	-0.08486075	-56.822689	-17.678675	31.067072
5600000000	-17.759171	30.317059	-0.08755639	-64.321335	-0.08788249	-64.323669	-17.677311	23.845119
5700000000	-17.786364	22.751957	-0.08450666	-71.787109	-0.08532349	-71.805946	-17.65089	16.500439
5800000000	-17.800102	15.501019	-0.07633877	-79.276665	-0.07700819	-79.296799	-17.75071	8.7367411
5900000000	-18.048058	8.2693815	-0.07164329	-86.753288	-0.06778758	-86.770714	-17.890926	1.4393829
6000000000	-18.053053	0.38152289	-0.07506251	-94.269722	-0.07165408	-94.270912	-17.937103	-5.8180013
6100000000	-18.321081	-6.9341998	-0.07782453	-101.74654	-0.07759476	-101.76888	-18.197447	-13.442497
6200000000	-18.469309	-14.895802	-0.07296884	-109.25034	-0.07172239	-109.27567	-18.40329	-20.789429
6300000000	-18.88875	-22.018515	-0.06148988	-116.74173	-0.06154019	-116.74878	-18.798307	-27.872086
6400000000	-18.976276	-30.291025	-0.05704319	-124.27387	-0.05674785	-124.24848	-18.973183	-35.45002
6500000000	-19.389597	-36.768482	-0.05368275	-131.75427	-0.05621011	-131.77982	-19.243477	-43.661304
6600000000	-19.670679	-45.068005	-0.05023653	-139.30014	-0.05292297	-139.29651	-19.7409	-51.871075
6700000000	-20.357988	-51.834717	-0.04604196	-146.80167	-0.04668557	-146.80647	-20.349848	-58.578468
6800000000	-20.719337	-61.494713	-0.05209351	-154.34419	-0.05373621	-154.33928	-20.633097	-65.779457
6900000000	-21.194338	-67.525124	-0.04716885	-161.87579	-0.04882312	-161.89191	-21.111509	-74.899628
7000000000	-21.858093	-76.70105	-0.04211885	-169.42818	-0.0425548	-169.44139	-21.754625	-82.847153
7100000000	-22.333836	-85.212547	-0.03924799	-176.97736	-0.03687966	-176.98244	-22.258162	-89.722717
7200000000	-22.906096	-94.203125	-0.03575528	175.45094	-0.03558254	175.4446	-22.868248	-96.674828
7300000000	-23.594715	-102.65243	-0.04171282	167.89856	-0.04095131	167.91696	-23.541891	-104.16302
7400000000	-24.474464	-110.54173	-0.03868783	160.33571	-0.04235816	160.31136	-24.436205	-112.76465
7500000000	-25.246513	-120.51939	-0.04507441	152.75676	-0.04112381	152.72861	-25.362165	-118.65782
7600000000	-26.092682	-131.80283	-0.03744369	145.16954	-0.04083681	145.16695	-26.030708	-125.20875
7700000000	-26.706505	-141.88353	-0.03809166	137.58101	-0.03451901	137.56972	-26.656006	-130.54112
7800000000	-27.445395	-149.23378	-0.03729695	129.99997	-0.03667671	129.97993	-27.29792	-139.83968
7900000000	-28.540174	-161.39874	-0.03849345	122.39043	-0.04241085	122.38658	-28.673567	-145.43581
8000000000	-28.726589	-175.43588	-0.04919863	114.83779	-0.04820568	114.85385	-29.020836	-151.09334
8100000000	-29.174873	174.13037	-0.04368901	107.26041	-0.03945363	107.26035	-29.2715	-159.27576
8200000000	-29.888723	164.01227	-0.03921038	99.667252	-0.03877079	99.682701	-30.229624	-164.68365
8300000000	-30.220766	151.34645	-0.03425175	92.087746	-0.03489571	92.078781	-31.14505	-173.87064
8400000000	-31.066858	143.43898	-0.04645258	84.511696	-0.04307282	84.503654	-32.286327	-178.84918
8500000000	-31.527115	129.45587	-0.04530799	76.914391	-0.04401326	76.901077	-32.727455	173.05443
8600000000	-31.191219	121.15643	-0.03945929	69.345955	-0.03978485	69.334816	-32.775215	164.0705
8700000000	-31.821629	114.37842	-0.04159063	61.760887	-0.04226786	61.747459	-33.836369	160.98354
8800000000	-31.483433	101.09528	-0.03996492	54.192398	-0.04129923	54.170033	-33.708012	157.91528
8900000000	-30.767334	96.171333	-0.0313856	46.624805	-0.03266585	46.624485	-33.480103	146.2585
9000000000	-31.473522	89.153595	-0.0387671	39.056313	-0.03588104	39.048534	-34.499893	142.43097
9100000000	-30.640987	80.769203	-0.03990251	31.495996	-0.03794384	31.472115	-33.292629	133.41476
9200000000	-30.885262	79.715614	-0.04095751	23.920279	-0.04153919	23.899487	-33.865822	123.06805
9300000000	-30.10449	71.539406	-0.03514368	16.374659	-0.03806097	16.337236	-32.312946	114.30959
9400000000	-29.952852	65.728401	-0.03533387	8.8093462	-0.03420776	8.7701845	-32.358418	104.32323
9500000000	-28.670912	57.314106	-0.03083235	1.201466	-0.03241103	1.1943392	-30.575634	98.934814
9600000000	-28.480507	58.207195	-0.0279482	-6.3464007	-0.02778047	-6.3883142	-30.27446	86.209488
9700000000	-28.61648	49.174301	-0.03081131	-13.893539	-0.02621442	-13.911355	-30.146589	76.735069
9800000000	-28.022213	47.359325	-0.04396004	-21.475275	-0.04088492	-21.494108	-29.684546	66.15358
9900000000	-28.053255	41.715237	-0.03877997	-29.050133	-0.03915345	-29.081057	-29.110174	59.543003
10000000000	-27.352922	35.074162	-0.03342885	-36.619644	-0.02978224	-36.654949	-28.467241	51.712811
10100000000	-27.30681	31.451447	-0.02325851	-44.207291	-0.02294791	-44.224594	-27.804705	41.897423
10200000000	-27.122555	23.69079	-0.02664668	-51.793369	-0.02022267	-51.811317	-27.818893	35.801441
10300000000	-27.097929	18.498825	-0.02971708	-59.39764	-0.03096771	-59.39407	-27.522655	28.664082
10400000000	-27.103449	10.349017	-0.03959561	-66.930588	-0.03974712	-66.966064	-27.037313	22.889515
10500000000	-26.174639	5.4093037	-0.04160291	-74.508339	-0.04153764	-74.525948	-25.847662	15.21559
10600000000	-26.01944	-0.30610514	-0.04283995	-82.101196	-0.04076344	-82.112305	-25.696156	6.1599607
10700000000	-25.680536	-5.7968469	-0.03889501	-89.679077	-0.03742736	-89.708092	-25.582657	-2.5454819
10800000000	-25.48506	-10.275597	-0.03753799	-97.302895	-0.04038441	-97.298836	-25.679588	-13.159338
10900000000	-25.113785	-15.976277	-0.05490876	-104.86631	-0.05522347	-104.88901	-25.129465	-19.388454
11000000000	-25.022615	-24.107243	-0.06385303	-112.41824	-0.06424475	-112.4261	-25.045982	-24.83605
11100000000	-24.245682	-29.155109	-0.06550002	-120.00666	-0.06423914	-120.0141	-23.904755	-33.411961
11200000000	-23.879612	-33.684803	-0.07187045	-127.60989	-0.07111532	-127.64671	-23.552773	-44.365227
11300000000	-23.690357	-38.616695	-0.07455021	-135.22585	-0.07553631	-135.24469	-23.456205	-54.33276
11400000000	-23.486168	-48.073841	-0.07513202	-142.78214	-0.07439542	-142.80124	-23.412891	-59.559093
11500000000	-22.88442	-54.336304	-0.08396965	-150.38409	-0.08162785	-150.4218	-22.801723	-68.672951
11600000000	-22.552984	-60.593609	-0.09761381	-157.97029	-0.10018462	-158.00223	-22.656742	-77.049606
11700000000	-22.380657	-67.126068	-0.11147446	-165.55968	-0.10880441	-165.5804	-22.303148	-85.192879
11800000000	-21.987474	-77.302704	-0.11238539	-173.13927	-0.11293411	-173.17177	-21.857697	-91.65023
11900000000	-21.461815	-83.317329	-0.10738039	179.26909	-0.10676623	179.2327	-21.381147	-100.72607
12000000000	-21.385695	-92.326187	-0.10838825	171.66124	-0.10944855	171.64352	-21.146185	-108.65243
12100000000	-20.780993	-102.27769	-0.124053	164.05042	-0.12189532	164.04919	-20.557812	-114.97262
12200000000	-20.086412	-110.07546	-0.1398099	156.50505	-0.1444273	156.4622	-19.820284	-123.14426
12300000000	-19.803408	-116.40727	-0.14793277	148.93077	-0.14709461	148.89664	-19.568691	-131.36034
12400000000	-19.576693	-125.18941	-0.1461339	141.35172	-0.14596832	141.33049	-19.290813	-138.20003
12500000000	-18.919767	-132.72621	-0.15047794	133.79582	-0.15305805	133.78181	-18.736372	-145.67165
12600000000	-18.676025	-139.6801	-0.15648621	126.22927	-0.15676826	126.19083	-18.539589	-153.42932
12700000000	-18.304201	-148.57898	-0.17510647	118.68305	-0.17446304	118.65926	-18.191772	-158.13922
12800000000	-18.031189	-156.0775	-0.18741876	111.12204	-0.18872196	111.12012	-17.769138	-165.07225
12900000000	-17.816095	-164.95648	-0.19407238	103.57923	-0.19254661	103.54563	-17.418221	-171.9949
13000000000	-17.506866	-171.353	-0.18960855	96.058647	-0.18982635	96.01152	-17.127003	-179.55367
13100000000	-17.477205	-179.83035	-0.18939742	88.443657	-0.19028022	88.415764	-17.131374	173.94946
13200000000	-17.102694	171.1337	-0.19594039	80.964012	-0.20056339	80.944717	-16.621307	168.78122
13300000000	-16.795404	161.88217	-0.211278	73.43483	-0.2177334	73.409607	-16.26697	161.64511
13400000000	-16.487856	154.78995	-0.21768942	65.909111	-0.21772782	65.869614	-15.997475	153.90317
13500000000	-16.411556	147.23204	-0.21879544	58.383392	-0.21911934	58.352192	-15.985949	146.20279
13600000000	-16.171022	139.70563	-0.22031374	50.882282	-0.21995164	50.864864	-15.978498	139.4001
13700000000	-16.063513	132.12489	-0.21153356	43.412258	-0.21875106	43.37154	-15.731327	133.70212
13800000000	-15.998147	123.9774	-0.21855918	35.866669	-0.21723618	35.84103	-15.571583	126.13238
13900000000	-15.884183	115.83393	-0.21935178	28.398188	-0.22152718	28.366026	-15.634355	119.43262
14000000000	-15.773988	108.75124	-0.23818979	20.914898	-0.23444939	20.883884	-15.575507	112.79055
14100000000	-15.728673	100.98728	-0.24399104	13.388611	-0.24237794	13.370763	-15.574966	106.08383
14200000000	-15.753776	94.169983	-0.23113875	5.8839717	-0.23484455	5.8730016	-15.544046	98.097084
14300000000	-15.750689	86.690849	-0.22344116	-1.6174933	-0.22284166	-1.6375294	-15.652768	91.321236
14400000000	-15.869911	79.238777	-0.2183706	-9.1549616	-0.2166861	-9.1686831	-15.762815	84.348259
14500000000	-16.009365	71.685982	-0.21368239	-16.650032	-0.21473289	-16.665972	-15.95011	77.321983
14600000000	-16.198215	63.942707	-0.22784188	-24.186096	-0.22971498	-24.193668	-16.142378	71.06498
14700000000	-16.381876	55.898464	-0.22638349	-31.733374	-0.22824719	-31.770298	-16.279345	64.684822
14800000000	-16.459827	47.62785	-0.21753502	-39.274956	-0.21728612	-39.28664	-16.305229	58.130962
14900000000	-16.573637	40.149639	-0.21203534	-46.827847	-0.20971004	-46.837593	-16.468973	51.791313
15000000000	-16.836552	33.339558	-0.20372725	-54.379574	-0.20492205	-54.381805	-16.669165	44.757236
15100000000	-17.127796	25.95175	-0.19358575	-61.928391	-0.19815745	-61.935287	-16.901337	37.596725
15200000000	-17.413548	18.717911	-0.20509637	-69.462662	-0.20540117	-69.5187	-17.216324	31.679686
15300000000	-17.829376	11.780098	-0.19149963	-77.051628	-0.19403573	-77.107239	-17.671133	24.520855
15400000000	-18.313768	4.7648277	-0.18589993	-84.672859	-0.18771223	-84.67778	-18.132473	18.024366
15500000000	-18.880167	-3.6296372	-0.17800727	-92.2332	-0.18001477	-92.267693	-18.491035	13.166184
15600000000	-19.355701	-10.971609	-0.16605122	-99.815025	-0.16429222	-99.847229	-18.878054	5.7263832
15700000000	-19.876801	-17.865786	-0.16798453	-107.4576	-0.17006033	-107.47644	-19.537083	-1.7050036
15800000000	-20.176929	-24.262671	-0.17748485	-115.07066	-0.18048965	-115.0965	-19.876366	-9.0047503
15900000000	-21.074743	-31.345623	-0.17334528	-122.68259	-0.17602608	-122.71002	-20.560343	-13.73411
16000000000	-21.463814	-39.020004	-0.17523311	-130.31789	-0.17766981	-130.32365	-20.95974	-21.160688
16100000000	-22.191763	-45.983532	-0.1602672	-137.90581	-0.1644177	-137.939	-21.536316	-27.624762
16200000000	-22.407345	-53.292965	-0.16181659	-145.53346	-0.16022469	-145.58076	-21.898977	-35.03941
16300000000	-23.087757	-59.34634	-0.15835169	-153.17203	-0.15749199	-153.21802	-22.588337	-41.523643
16400000000	-23.203701	-66.342628	-0.15618922	-160.77823	-0.15476092	-160.80914	-23.276726	-49.804832
16500000000	-23.777956	-71.156532	-0.16269327	-168.39627	-0.16664757	-168.42744	-23.977531	-57.558804
16600000000	-23.942564	-78.712524	-0.15259165	-176.03107	-0.15751145	-176.05942	-24.208609	-64.458626
16700000000	-24.58016	-86.390388	-0.14221474	176.34279	-0.14523004	176.2952	-24.390036	-72.097038
16800000000	-24.237213	-95.27784	-0.14556999	168.69994	-0.14253019	168.65202	-24.13201	-84.65535
16900000000	-24.158825	-100.03231	-0.1455875	161.08176	-0.1466692	161.05832	-24.57869	-97.451111
17000000000	-23.735001	-108.25507	-0.14744577	153.47823	-0.14936717	153.46074	-24.717402	-108.8615
17100000000	-23.767197	-111.13119	-0.15461723	145.8544	-0.15555333	145.84001	-25.32058	-120.46582
17200000000	-23.873001	-121.7227	-0.15571095	138.24644	-0.15248405	138.18784	-24.694475	-127.6994
17300000000	-23.573055	-127.91861	-0.15214547	130.61641	-0.14974267	130.58089	-24.722458	-140.16284
17400000000	-23.436031	-138.53546	-0.1467685	122.99127	-0.1462174	122.96314	-24.280975	-146.71109
17500000000	-23.225418	-145.37201	-0.1441581	115.41293	-0.1474844	115.38674	-23.901255	-158.48598
17600000000	-22.987949	-156.83531	-0.1621841	107.74487	-0.1615964	107.72657	-23.359406	-164.01404
17700000000	-22.474344	-167.22635	-0.17532702	100.17928	-0.17132452	100.13391	-22.490891	-173.13893
17800000000	-21.848982	-175.15923	-0.1673844	92.514076	-0.1661722	92.503868	-21.963932	179.37572
17900000000	-21.449661	178.71538	-0.1675874	84.929581	-0.1682246	84.914986	-21.314243	167.32333
18000000000	-21.150692	170.89386	-0.167006	77.329956	-0.1675107	77.314003	-21.360249	158.86102
18100000000	-21.103628	163.25768	-0.1606819	69.783699	-0.158484	69.723412	-21.043905	151.06181
18200000000	-20.795856	153.82706	-0.1624505	62.158951	-0.1635373	62.112144	-20.553347	144.61954
18300000000	-20.745209	144.08754	-0.1661799	54.624413	-0.1647638	54.567234	-20.215084	137.47827
18400000000	-20.393784	136.1942	-0.168338	46.972343	-0.1670849	46.939072	-20.176916	129.88467
18500000000	-20.332575	129.65787	-0.1622535	39.433231	-0.1674049	39.393341	-19.729609	121.21933
18600000000	-20.460056	122.92001	-0.1434696	31.814175	-0.1443639	31.78681	-20.040537	111.78728
18700000000	-20.681946	115.96912	-0.1372753	24.209187	-0.1381222	24.147268	-19.986963	104.43619
18800000000	-20.834805	105.73103	-0.1461186	16.582188	-0.1431867	16.525505	-20.143833	96.909119
18900000000	-20.698717	98.017372	-0.1362365	9.0477314	-0.1373511	8.9767857	-20.382034	92.248405
19000000000	-21.072853	91.654129	-0.1371104	1.4303964	-0.139327	1.3819501	-20.437254	83.00631
19100000000	-21.33033	83.590096	-0.1274503	-6.1717458	-0.1296304	-6.2348571	-20.786909	75.7146
