!Keysight Technologies,N5245B,MY58422263,A.13.60.06
!Date: Tuesday, May 19, 2020 14:53:19
!Correction: S11(Full 2 Port(1,2)) 
!Board Loss Deducted
!S21(Full 2 Port(1,2)) 
!S12(Full 2 Port(1,2)) 
!S22(Full 2 Port(1,2)) 
!S2P File: Measurements: S11, S21, S12, S22:
# Hz S  dB   R 50
10000000	-23.380360	131.520290	-19.984052	-6.347703	-20.014099	-5.997450	-23.116457	130.701190
20000000	-25.415020	149.670620	-20.003821	-4.399050	-20.014788	-4.418049	-25.168903	148.977920
30000000	-25.941769	156.941730	-20.011447	-4.298127	-20.025951	-4.084786	-25.750778	156.595750
40000000	-26.152948	160.425580	-20.014353	-4.472922	-19.998025	-4.416458	-25.950727	160.325760
50000000	-26.265518	162.391490	-20.011253	-4.893207	-20.015529	-4.867392	-26.093060	162.356570
60000000	-26.345514	163.371580	-20.012999	-5.439626	-20.016561	-5.381316	-26.206467	163.433150
70000000	-26.379496	163.858120	-20.016410	-6.028151	-20.019542	-6.005946	-26.257324	163.691800
80000000	-26.427757	164.098740	-20.015514	-6.683819	-20.023279	-6.619177	-26.272387	163.804960
90000000	-26.452145	164.082500	-20.013311	-7.324039	-20.023239	-7.290569	-26.312654	163.803330
100000000	-26.498322	163.943660	-20.019148	-7.985466	-20.018585	-7.984170	-26.336178	163.619030
200000000	-26.718040	159.139890	-20.014552	-14.779155	-20.023609	-14.800626	-26.598099	158.347400
300000000	-26.979084	152.469280	-20.026961	-21.762300	-20.031582	-21.801788	-26.794584	151.504550
400000000	-27.132872	145.448100	-20.025686	-28.762394	-20.034965	-28.798885	-26.951000	144.029920
500000000	-27.165510	138.641420	-20.029565	-35.771149	-20.037212	-35.772045	-26.976772	136.648090
600000000	-27.198099	131.659960	-20.029661	-42.734886	-20.041074	-42.767471	-26.938906	129.186220
700000000	-27.321581	124.340970	-20.033331	-49.713444	-20.047788	-49.730797	-26.900318	122.029460
800000000	-27.377535	117.045020	-20.034796	-56.702847	-20.049030	-56.698803	-26.851028	115.252640
900000000	-27.269407	110.233810	-20.034265	-63.728813	-20.052965	-63.643005	-26.817539	108.562570
1000000000	-27.164581	103.265730	-20.047572	-70.733223	-20.053899	-70.609955	-26.806650	102.026110
1100000000	-27.106382	96.205582	-20.052769	-77.690376	-20.053910	-77.563812	-26.833063	95.750069
1200000000	-27.017902	89.141808	-20.055573	-84.654305	-20.058729	-84.507545	-26.879379	89.507538
1300000000	-26.960571	82.372536	-20.055966	-91.601570	-20.058967	-91.463760	-26.964653	83.064774
1400000000	-26.938562	75.707542	-20.060349	-98.568245	-20.061358	-98.455566	-27.059063	76.259117
1500000000	-26.888910	68.872559	-20.061552	-105.516590	-20.067563	-105.477650	-27.112623	69.169128
1600000000	-26.788219	61.998707	-20.062886	-112.466910	-20.068361	-112.469280	-27.152908	61.860703
1700000000	-26.762987	55.095116	-20.063007	-119.433070	-20.073990	-119.471390	-27.157068	54.361057
1800000000	-26.822886	48.420841	-20.065889	-126.368620	-20.076608	-126.442990	-27.126404	47.070755
1900000000	-26.796690	42.278065	-20.067864	-133.327380	-20.076952	-133.392460	-27.010868	40.031933
2000000000	-26.694347	36.370434	-20.069747	-140.270800	-20.080378	-140.343110	-26.829750	33.104462
2100000000	-26.588816	30.061964	-20.072851	-147.218370	-20.083768	-147.285160	-26.641600	26.475063
2200000000	-26.553097	23.191629	-20.075341	-154.189580	-20.086218	-154.236510	-26.487791	20.122326
2300000000	-26.513767	16.035484	-20.072208	-161.186810	-20.089144	-161.178680	-26.418135	13.864478
2400000000	-26.491217	9.484279	-20.073997	-168.173050	-20.085608	-168.138050	-26.442085	7.783551
2500000000	-26.461277	3.369146	-20.077295	-175.124370	-20.090040	-175.045460	-26.532278	2.237211
2600000000	-26.385752	-2.836427	-20.076635	177.926540	-20.091137	177.966090	-26.608055	-3.444389
2700000000	-26.248878	-9.514966	-20.079753	170.961690	-20.093030	171.040180	-26.697521	-9.623005
2800000000	-26.129784	-16.430862	-20.084520	164.002090	-20.089295	164.066350	-26.752842	-16.586143
2900000000	-26.144613	-23.157038	-20.087707	157.075620	-20.090233	157.117430	-26.864752	-24.236715
3000000000	-26.092854	-29.743248	-20.087046	150.134220	-20.093241	150.147570	-26.944845	-31.944702
3100000000	-25.948654	-36.299847	-20.085045	143.203860	-20.092503	143.221080	-26.946997	-39.373531
3200000000	-25.788071	-42.407925	-20.086240	136.282070	-20.095624	136.262240	-26.805706	-46.547169
3300000000	-25.618496	-48.986408	-20.090660	129.349430	-20.094770	129.323750	-26.590698	-53.722958
3400000000	-25.469316	-55.997765	-20.088544	122.389490	-20.101268	122.356350	-26.382143	-60.873508
3500000000	-25.394611	-62.671322	-20.090500	115.470430	-20.099418	115.449380	-26.240942	-67.577614
3600000000	-25.344584	-68.657120	-20.091542	108.516100	-20.101344	108.489160	-26.180641	-73.703972
3700000000	-25.240181	-74.465668	-20.094375	101.576660	-20.104187	101.567940	-26.116753	-79.714630
3800000000	-25.049414	-80.946678	-20.095026	94.652931	-20.102771	94.627098	-26.036188	-85.995613
3900000000	-24.914618	-87.651291	-20.095712	87.721756	-20.107498	87.684464	-25.997875	-92.973839
4000000000	-24.954052	-93.752243	-20.095851	80.755875	-20.106402	80.735924	-26.127254	-100.265870
4100000000	-25.176439	-99.233833	-20.095502	73.790001	-20.105031	73.762054	-26.425829	-107.518070
4200000000	-25.387983	-104.464040	-20.094771	66.848877	-20.107847	66.808487	-26.731974	-114.939820
4300000000	-25.433435	-110.119500	-20.097604	59.883526	-20.108300	59.861485	-26.727098	-122.603160
4400000000	-25.320282	-116.090050	-20.096289	52.946819	-20.107567	52.901348	-26.474047	-130.281310
4500000000	-25.258083	-122.745480	-20.100961	45.994740	-20.110889	45.945507	-26.163202	-137.966890
4600000000	-25.276590	-129.045150	-20.101058	39.027351	-20.110025	38.994614	-25.953669	-145.225780
4700000000	-25.347271	-134.714370	-20.102463	32.066101	-20.109651	32.052238	-25.764374	-151.693950
4800000000	-25.349913	-140.346040	-20.102259	25.119595	-20.108850	25.088011	-25.540640	-157.651150
4900000000	-25.235964	-146.338440	-20.099337	18.142235	-20.113047	18.140936	-25.302998	-163.456300
5000000000	-25.166660	-152.738140	-20.104988	11.168195	-20.114230	11.194408	-25.144913	-169.298520
5100000000	-25.187187	-158.926650	-20.105147	4.203450	-20.115280	4.217461	-25.065584	-175.261350
5200000000	-25.219976	-164.915880	-20.107040	-2.741073	-20.115422	-2.721569	-25.012682	178.901990
5300000000	-25.211224	-170.477570	-20.113014	-9.682950	-20.117304	-9.677908	-24.937908	172.975360
5400000000	-25.058796	-176.064800	-20.112210	-16.644159	-20.116242	-16.622898	-24.815735	166.646840
5500000000	-24.914553	177.859560	-20.113271	-23.593754	-20.118275	-23.571335	-24.663040	159.844070
5600000000	-24.904844	171.608120	-20.114977	-30.558540	-20.119598	-30.512794	-24.548426	153.328250
5700000000	-24.919056	165.738510	-20.116372	-37.490822	-20.121664	-37.484848	-24.419022	147.258350
5800000000	-24.889145	160.915420	-20.117289	-44.433712	-20.122909	-44.440872	-24.158600	141.516980
5900000000	-24.756397	156.245940	-20.124094	-51.383480	-20.127646	-51.381092	-23.857000	136.113340
6000000000	-24.587530	150.559420	-20.124310	-58.347088	-20.128987	-58.344883	-23.587524	130.341860
6100000000	-24.483591	144.364520	-20.127767	-65.291626	-20.132345	-65.295807	-23.399363	124.699490
6200000000	-24.490410	138.632460	-20.132117	-72.252342	-20.137919	-72.249733	-23.301128	119.775950
6300000000	-24.563162	133.888610	-20.135736	-79.177612	-20.139001	-79.164124	-23.222483	115.383190
6400000000	-24.500698	129.774630	-20.136404	-86.122124	-20.145846	-86.103302	-23.036335	110.866670
6500000000	-24.293539	124.943000	-20.141111	-93.063606	-20.147543	-93.051674	-22.865055	105.904380
6600000000	-24.108160	119.456250	-20.144147	-100.002720	-20.148914	-99.989883	-22.776175	100.452670
6700000000	-24.100994	113.794870	-20.143579	-106.937640	-20.148292	-106.934010	-22.744963	95.078377
6800000000	-24.217308	108.559380	-20.146609	-113.876710	-20.150839	-113.870380	-22.721909	90.104546
6900000000	-24.240952	104.597030	-20.148058	-120.803700	-20.153947	-120.802130	-22.624352	85.583321
7000000000	-24.113611	100.649660	-20.150017	-127.761230	-20.155495	-127.757000	-22.445347	80.763741
7100000000	-23.940285	95.722778	-20.153443	-134.706910	-20.158994	-134.691540	-22.276451	75.597565
7200000000	-23.922279	90.141060	-20.155054	-141.640340	-20.163034	-141.643230	-22.176176	70.494247
7300000000	-23.995333	84.619667	-20.158269	-148.594480	-20.164962	-148.584210	-22.121799	66.008179
7400000000	-24.110785	80.301071	-20.158338	-155.537450	-20.165253	-155.523180	-22.058439	62.118534
7500000000	-24.079903	76.930786	-20.160386	-162.464950	-20.169791	-162.457260	-21.931446	58.307537
7600000000	-23.901928	72.437569	-20.164101	-169.406660	-20.172538	-169.377750	-21.809265	54.120380
7700000000	-23.789793	66.866447	-20.166695	-176.293660	-20.172242	-176.315860	-21.777260	49.408691
7800000000	-23.842266	60.981598	-20.168209	176.739970	-20.170782	176.731400	-21.862524	44.958466
7900000000	-24.050104	56.304672	-20.161678	169.799610	-20.171053	169.792180	-21.967581	41.081528
8000000000	-24.161491	52.719662	-20.164658	162.829910	-20.173919	162.866560	-21.975023	37.511055
8100000000	-24.044649	49.130611	-20.165933	155.905980	-20.175205	155.908520	-21.905283	33.307514
8200000000	-23.810389	44.301968	-20.170618	148.969210	-20.179407	148.978300	-21.827730	28.251812
8300000000	-23.789009	38.203041	-20.167944	142.024490	-20.181058	142.030960	-21.866674	23.203672
8400000000	-23.935915	32.385452	-20.175320	135.082920	-20.178991	135.087020	-22.020597	18.893784
8500000000	-24.176378	28.256786	-20.172852	128.191890	-20.180961	128.177720	-22.122343	15.488753
8600000000	-24.247442	25.436886	-20.171308	121.261750	-20.178221	121.233770	-22.070339	12.437438
8700000000	-24.107229	21.922024	-20.171523	114.320590	-20.179927	114.328820	-21.966183	8.545250
8800000000	-23.893797	16.348433	-20.171188	107.387370	-20.179935	107.373570	-21.958422	3.816430
8900000000	-23.923708	10.091232	-20.171031	100.455420	-20.181521	100.435880	-22.123337	-0.985570
9000000000	-24.178759	5.166060	-20.173708	93.513580	-20.178990	93.511620	-22.397930	-4.391368
9100000000	-24.479965	1.686194	-20.164510	86.603920	-20.175207	86.577209	-22.584612	-7.082628
9200000000	-24.517365	-1.084444	-20.162754	79.673813	-20.171392	79.626015	-22.605753	-10.246961
9300000000	-24.282892	-5.095497	-20.165212	72.701797	-20.171046	72.698631	-22.627735	-14.615760
9400000000	-24.180609	-10.718412	-20.162189	65.750069	-20.172239	65.753441	-22.776272	-19.623812
9500000000	-24.440006	-16.287342	-20.164076	58.812553	-20.168577	58.781231	-23.094978	-24.002136
9600000000	-24.805969	-20.539789	-20.160567	51.871128	-20.167831	51.838398	-23.400707	-27.024700
9700000000	-25.006960	-23.119196	-20.163558	44.949490	-20.167784	44.919636	-23.521406	-29.733740
9800000000	-24.943285	-25.515896	-20.160693	38.016907	-20.171860	37.989079	-23.518564	-33.605507
9900000000	-24.848915	-30.709446	-20.164471	31.075047	-20.172445	31.048264	-23.669691	-38.240723
10000000000	-24.996819	-36.777775	-20.161050	24.121862	-20.171501	24.087019	-23.991180	-42.468060
10100000000	-25.409422	-41.761234	-20.164858	17.181616	-20.167108	17.158205	-24.422415	-45.091724
10200000000	-25.843199	-44.360199	-20.162707	10.264637	-20.165395	10.233532	-24.696209	-47.288486
10300000000	-25.974371	-45.915249	-20.158341	3.302078	-20.166419	3.277703	-24.746778	-50.259663
10400000000	-25.775120	-49.195629	-20.158140	-3.657034	-20.165778	-3.689594	-24.936829	-54.686253
10500000000	-25.772175	-55.539005	-20.156751	-10.606736	-20.163875	-10.644417	-25.415361	-59.678150
10600000000	-26.234619	-61.728100	-20.157178	-17.579487	-20.166234	-17.590120	-26.102095	-63.123959
10700000000	-27.015661	-65.486389	-20.156961	-24.530672	-20.168990	-24.551186	-26.630610	-64.715675
10800000000	-27.420738	-66.278358	-20.160449	-31.471491	-20.169350	-31.501669	-26.822481	-66.463837
10900000000	-27.280392	-67.258087	-20.157852	-38.414696	-20.167111	-38.448631	-26.937513	-70.784943
11000000000	-27.068630	-72.129227	-20.159227	-45.374573	-20.165799	-45.399937	-27.210281	-77.219353
11100000000	-27.233870	-79.452965	-20.154168	-52.338226	-20.165724	-52.384125	-27.927191	-82.713882
11200000000	-27.960508	-85.541389	-20.155973	-59.320724	-20.163564	-59.359585	-28.810001	-85.219810
11300000000	-28.832882	-87.242798	-20.151685	-66.313095	-20.164257	-66.360107	-29.237818	-85.638878
11400000000	-29.150089	-86.246544	-20.160938	-73.342758	-20.170658	-73.359436	-29.215454	-86.833961
11500000000	-28.860327	-87.911270	-20.171787	-80.271820	-20.180324	-80.282539	-29.232853	-91.455780
11600000000	-28.720947	-94.224083	-20.177022	-87.192940	-20.183579	-87.238914	-29.788610	-97.340286
11700000000	-29.155626	-101.043940	-20.178590	-94.145668	-20.186443	-94.176918	-30.836500	-101.454720
11800000000	-30.189852	-105.796680	-20.174134	-101.086560	-20.186816	-101.124250	-31.776659	-101.700120
11900000000	-31.065893	-105.380360	-20.174223	-108.038490	-20.185950	-108.097390	-32.210449	-101.612000
12000000000	-31.081762	-105.040970	-20.174979	-114.994840	-20.186036	-115.026880	-32.473629	-104.177560
12100000000	-30.946085	-109.494060	-20.180334	-121.969460	-20.186480	-122.003430	-33.094635	-109.430050
12200000000	-31.366415	-116.310590	-20.178003	-128.936610	-20.186686	-128.952010	-34.190163	-116.029530
12300000000	-32.395573	-122.615310	-20.179385	-135.893650	-20.190574	-135.920720	-35.377422	-119.034830
12400000000	-33.493797	-123.062590	-20.177459	-142.848510	-20.193150	-142.878140	-36.023888	-120.125690
12500000000	-34.017056	-122.031600	-20.182462	-149.813230	-20.190937	-149.814770	-36.302856	-124.023670
12600000000	-34.027153	-125.276920	-20.177137	-156.768770	-20.189193	-156.794590	-36.631634	-129.818190
12700000000	-34.481960	-134.084960	-20.180667	-163.732700	-20.192132	-163.744780	-37.740223	-135.031880
12800000000	-35.799522	-144.094940	-20.182077	-170.689700	-20.190715	-170.696000	-39.116726	-136.109220
12900000000	-38.208717	-147.749600	-20.176525	-177.648160	-20.189202	-177.698840	-39.884010	-130.705110
13000000000	-39.801765	-142.416780	-20.175921	175.356670	-20.185302	175.367540	-40.181843	-129.673290
13100000000	-39.654465	-146.023450	-20.178779	168.397740	-20.182173	168.401960	-40.851864	-136.343250
13200000000	-39.769508	-158.864040	-20.177632	161.411270	-20.187438	161.417530	-43.271317	-143.433330
13300000000	-40.836094	178.359250	-20.180784	154.463840	-20.187790	154.467800	-47.908428	-140.646360
13400000000	-43.425636	147.306690	-20.181144	147.522170	-20.189134	147.463760	-52.350628	-107.376950
13500000000	-46.579388	120.250480	-20.174059	140.534850	-20.184165	140.521480	-51.125416	-84.583267
13600000000	-48.751945	102.777970	-20.173849	133.563400	-20.185241	133.518160	-52.147854	-88.820747
13700000000	-47.232243	105.601710	-20.171466	126.578490	-20.185017	126.559780	-59.644863	-53.725193
13800000000	-43.253433	92.190674	-20.170327	119.576100	-20.183651	119.595110	-53.533867	17.760229
13900000000	-40.276112	74.354034	-20.174343	112.608900	-20.183767	112.651440	-46.983017	12.217886
14000000000	-38.465111	56.304592	-20.179530	105.646250	-20.179648	105.653760	-44.637066	-0.421982
14100000000	-37.798508	43.109184	-20.174929	98.679451	-20.180353	98.672768	-43.560101	-9.354278
14200000000	-37.234192	38.521702	-20.174244	91.716354	-20.184337	91.681740	-43.099915	-11.949780
14300000000	-36.092037	36.276642	-20.175911	84.734215	-20.182267	84.704124	-42.063946	-12.977982
14400000000	-34.949036	31.581652	-20.175444	77.748123	-20.186754	77.715576	-40.735935	-15.258605
14500000000	-33.902954	26.396975	-20.181898	70.759453	-20.189078	70.752762	-39.407875	-19.772825
14600000000	-33.366222	20.609863	-20.183031	63.798912	-20.189154	63.764359	-38.067047	-22.900927
14700000000	-32.866837	15.933011	-20.183727	56.837051	-20.193315	56.806255	-36.669044	-25.547436
14800000000	-32.225266	12.897074	-20.183089	49.867207	-20.197391	49.832771	-35.222988	-30.557110
14900000000	-31.286278	6.517433	-20.189640	42.889297	-20.197857	42.877827	-34.438477	-36.466194
15000000000	-30.456791	-0.702894	-20.187706	35.908710	-20.199167	35.932976	-34.201694	-39.270798
15100000000	-30.254614	-5.736621	-20.190794	28.958755	-20.201987	28.935007	-33.828621	-40.431526
15200000000	-30.224825	-10.346730	-20.191255	21.960382	-20.202396	21.963709	-33.252693	-39.471619
15300000000	-29.960409	-11.944994	-20.195501	14.993778	-20.205871	15.003188	-32.011887	-42.286125
15400000000	-29.014780	-14.473394	-20.196681	8.038425	-20.206252	8.024660	-31.348232	-47.114864
15500000000	-28.288494	-20.609241	-20.199746	1.088657	-20.210674	1.065909	-31.038361	-54.199108
15600000000	-27.955614	-27.711901	-20.202792	-5.900163	-20.210836	-5.918884	-31.050001	-59.581490
15700000000	-27.969452	-34.197018	-20.206609	-12.859767	-20.215765	-12.880442	-31.124037	-61.113411
15800000000	-28.061810	-37.800251	-20.207801	-19.852880	-20.217273	-19.822887	-30.567333	-62.845814
15900000000	-27.900429	-39.641232	-20.209507	-26.787333	-20.219415	-26.802107	-29.795952	-66.966515
16000000000	-27.289316	-42.708076	-20.210593	-33.771618	-20.221797	-33.754749	-29.183214	-72.523796
16100000000	-26.711559	-48.687557	-20.210655	-40.747608	-20.223490	-40.699936	-28.833130	-78.519936
16200000000	-26.551050	-56.480114	-20.215794	-47.724174	-20.218154	-47.719322	-28.602781	-83.312263
16300000000	-26.736298	-61.663612	-20.214460	-54.728909	-20.222097	-54.720402	-28.382265	-86.763435
16400000000	-26.837811	-65.509895	-20.219527	-61.706356	-20.226748	-61.698616	-28.022753	-88.866104
16500000000	-26.472614	-69.328651	-20.224726	-68.680992	-20.231423	-68.691910	-27.561491	-92.151749
16600000000	-26.098719	-73.963181	-20.225870	-75.650291	-20.236549	-75.618912	-27.254911	-97.706558
16700000000	-26.023159	-80.988800	-20.230281	-82.620872	-20.239544	-82.622169	-27.168205	-100.948970
16800000000	-25.782055	-87.525246	-20.230601	-89.567825	-20.239002	-89.557884	-26.973669	-104.893280
16900000000	-25.898256	-91.827087	-20.234760	-96.532799	-20.242400	-96.535767	-26.665796	-109.302490
17000000000	-25.806345	-95.440720	-20.231631	-103.504810	-20.240586	-103.533050	-26.327599	-114.990910
17100000000	-25.438021	-101.461410	-20.236341	-110.486780	-20.243323	-110.484970	-26.292444	-118.531850
17200000000	-24.619644	-106.631440	-20.239947	-117.450920	-20.245664	-117.457520	-26.038071	-124.367480
17300000000	-25.254204	-114.242910	-20.243393	-124.420850	-20.249532	-124.457250	-25.905962	-129.293990
17400000000	-25.152184	-120.367280	-20.243473	-131.402390	-20.250844	-131.434560	-25.741272	-129.909960
17500000000	-25.055801	-123.069040	-20.242279	-138.395200	-20.251497	-138.426150	-25.201397	-134.496640
17600000000	-24.680195	-127.543940	-20.248983	-145.360660	-20.260940	-145.388530	-24.529783	-141.098830
17700000000	-23.935616	-131.512130	-20.249229	-152.316650	-20.252909	-152.359890	-24.932705	-145.399960
17800000000	-23.800657	-138.068220	-20.249470	-159.307720	-20.259615	-159.328320	-24.656097	-151.652370
17900000000	-23.670620	-145.740450	-20.249837	-166.272320	-20.259263	-166.307590	-24.622423	-154.226750
18000000000	-24.073866	-151.358600	-20.253527	-173.313520	-20.255206	-173.270290	-24.521826	-157.413450
18100000000	-23.992098	-152.740340	-20.252593	179.743070	-20.261471	179.755800	-23.858133	-159.700940
18200000000	-23.530153	-155.762650	-20.252988	172.764390	-20.261756	172.773760	-23.481972	-165.326430
18300000000	-22.947506	-160.238940	-20.257816	165.819950	-20.262075	165.795100	-23.379356	-171.720250
18400000000	-22.610634	-167.413590	-20.258875	158.844060	-20.269363	158.830810	-23.460365	-176.263260
18500000000	-22.729446	-173.405620	-20.261762	151.855590	-20.269333	151.863650	-23.440571	-179.446700
18600000000	-23.062239	-177.322020	-20.264340	144.922620	-20.267561	144.909350	-23.293165	178.552950
18700000000	-23.143835	-179.784560	-20.263942	137.996410	-20.268618	137.964940	-22.956390	175.092620
18800000000	-22.680952	176.734390	-20.262019	131.036220	-20.269083	131.019940	-22.617691	169.829040
18900000000	-22.213951	171.542680	-20.263415	124.065840	-20.267269	124.068870	-22.477268	164.253340
