! Mini-Circuits
! S2P DATA File Format
! Type: BAND Pass Filter
! Model: VBF-8450+    
! Note: All S Parameters are in dB deg format
! TEST CONDITIONS: INPUT POWER = 0dBm @Temperature = +25degC
! 401 Frequency points
# Hz S  dB   R 50
300000 -4.249876e-001 3.262498e-002 -7.339288e+001 1.588138e+001 -5.797559e+001 -4.071383e+001 -1.454718e-001 4.361960e-001
100298500 -4.028751e-001 -2.138337e+000 -5.041176e+001 8.458781e+001 -4.908503e+001 8.508581e+001 -3.663355e-002 -2.432053e+000
200297000 -4.333763e-001 -4.382114e+000 -4.312585e+001 8.704241e+001 -4.293317e+001 8.415038e+001 1.679106e-003 -4.465182e+000
300295500 -4.293591e-001 -6.402604e+000 -4.011797e+001 7.885545e+001 -4.005246e+001 8.441757e+001 -1.769114e-002 -6.586236e+000
400294000 -4.412621e-001 -8.794958e+000 -3.744670e+001 8.131323e+001 -3.733976e+001 8.315359e+001 -1.010537e-002 -8.806523e+000
500292500 -4.472544e-001 -1.080369e+001 -3.569703e+001 8.029623e+001 -3.545915e+001 8.080620e+001 -4.740817e-002 -1.090730e+001
600291000 -4.441700e-001 -1.280267e+001 -3.429304e+001 7.660551e+001 -3.411948e+001 7.657755e+001 -2.680108e-002 -1.311167e+001
700289500 -4.586697e-001 -1.490785e+001 -3.249641e+001 7.597211e+001 -3.259508e+001 7.391185e+001 1.351496e-002 -1.525909e+001
800288000 -4.751720e-001 -1.722773e+001 -3.141947e+001 7.397441e+001 -3.178728e+001 7.405538e+001 -3.157345e-002 -1.724389e+001
900286500 -4.725281e-001 -1.946426e+001 -3.051488e+001 6.927166e+001 -3.047082e+001 7.126566e+001 -3.823294e-002 -1.953257e+001
1000285000 -4.917737e-001 -2.151444e+001 -2.969176e+001 6.679774e+001 -2.959022e+001 6.819316e+001 -4.264063e-002 -2.181569e+001
1100283500 -5.183395e-001 -2.355594e+001 -2.893429e+001 6.645450e+001 -2.902858e+001 6.592596e+001 -6.473103e-002 -2.406494e+001
1200282000 -4.984134e-001 -2.574379e+001 -2.823547e+001 6.323797e+001 -2.827249e+001 6.345926e+001 -6.354642e-002 -2.637924e+001
1300280500 -5.161619e-001 -2.798240e+001 -2.758932e+001 6.061822e+001 -2.752770e+001 6.233692e+001 -6.831065e-002 -2.826125e+001
1400279000 -5.087576e-001 -3.009110e+001 -2.696013e+001 5.974453e+001 -2.685390e+001 5.820994e+001 -4.400758e-002 -3.071453e+001
1500277500 -5.378109e-001 -3.227271e+001 -2.643526e+001 5.666945e+001 -2.632216e+001 5.730325e+001 -6.339347e-002 -3.290342e+001
1600276000 -5.215554e-001 -3.449982e+001 -2.582772e+001 5.482935e+001 -2.591552e+001 5.526925e+001 -8.851824e-002 -3.513958e+001
1700274500 -5.555188e-001 -3.657958e+001 -2.549652e+001 5.315015e+001 -2.541566e+001 5.271131e+001 -7.702602e-002 -3.693419e+001
1800273000 -5.623469e-001 -3.885908e+001 -2.503807e+001 5.063023e+001 -2.499259e+001 4.966784e+001 -7.932655e-002 -3.939304e+001
1900271500 -5.440080e-001 -4.105864e+001 -2.463744e+001 4.864679e+001 -2.461399e+001 4.748444e+001 -9.275398e-002 -4.170002e+001
2000270000 -5.643364e-001 -4.337906e+001 -2.424357e+001 4.605358e+001 -2.415331e+001 4.593493e+001 -1.145691e-001 -4.346600e+001
2100268500 -5.813472e-001 -4.522543e+001 -2.391747e+001 4.379805e+001 -2.397891e+001 4.410808e+001 -1.053232e-001 -4.544521e+001
2200267000 -5.780877e-001 -4.753963e+001 -2.361196e+001 4.188300e+001 -2.355465e+001 4.171638e+001 -1.267659e-001 -4.777899e+001
2300265500 -5.910013e-001 -4.961154e+001 -2.336192e+001 3.971936e+001 -2.324714e+001 3.952916e+001 -1.468725e-001 -4.953351e+001
2400264000 -6.023124e-001 -5.165763e+001 -2.302360e+001 3.751850e+001 -2.306478e+001 3.778008e+001 -1.550837e-001 -5.170977e+001
2500262500 -6.088256e-001 -5.377056e+001 -2.281455e+001 3.522804e+001 -2.270385e+001 3.518536e+001 -1.400488e-001 -5.369542e+001
2600261000 -6.201059e-001 -5.580185e+001 -2.247155e+001 3.320960e+001 -2.255521e+001 3.366662e+001 -1.387645e-001 -5.563151e+001
2700259500 -6.531092e-001 -5.795625e+001 -2.224846e+001 3.123137e+001 -2.220842e+001 3.155276e+001 -1.476723e-001 -5.764481e+001
2800258000 -6.562508e-001 -6.024340e+001 -2.212048e+001 2.891468e+001 -2.218475e+001 2.925887e+001 -1.650924e-001 -5.950287e+001
2900256500 -6.684793e-001 -6.224043e+001 -2.187007e+001 2.747531e+001 -2.191535e+001 2.760872e+001 -1.991054e-001 -6.120646e+001
3000255000 -6.513410e-001 -6.403465e+001 -2.179745e+001 2.606467e+001 -2.174323e+001 2.574639e+001 -2.043612e-001 -6.289107e+001
3100253500 -6.611348e-001 -6.635876e+001 -2.147335e+001 2.315427e+001 -2.155109e+001 2.262425e+001 -1.957948e-001 -6.483872e+001
3200252000 -7.078756e-001 -6.832680e+001 -2.142669e+001 2.112173e+001 -2.140044e+001 2.144721e+001 -2.001023e-001 -6.647212e+001
3300250500 -6.956744e-001 -7.017653e+001 -2.129338e+001 1.951394e+001 -2.127323e+001 2.024924e+001 -2.164402e-001 -6.799752e+001
3400249000 -7.152755e-001 -7.231961e+001 -2.111395e+001 1.774658e+001 -2.109142e+001 1.792223e+001 -2.403699e-001 -6.985384e+001
3500247500 -7.323592e-001 -7.416104e+001 -2.101503e+001 1.641689e+001 -2.097521e+001 1.607372e+001 -2.359643e-001 -7.145636e+001
3600246000 -7.371924e-001 -7.611743e+001 -2.093154e+001 1.392840e+001 -2.097577e+001 1.433504e+001 -2.660269e-001 -7.286851e+001
3700244500 -7.654145e-001 -7.797663e+001 -2.078877e+001 1.251961e+001 -2.081833e+001 1.248749e+001 -2.809293e-001 -7.452736e+001
3800243000 -7.863443e-001 -7.982907e+001 -2.062151e+001 1.111230e+001 -2.065431e+001 1.085119e+001 -3.070629e-001 -7.614214e+001
3900241500 -7.867821e-001 -8.160799e+001 -2.050278e+001 9.245019e+000 -2.055762e+001 8.599314e+000 -3.164322e-001 -7.772918e+001
4000240000 -7.782704e-001 -8.362502e+001 -2.056370e+001 7.232530e+000 -2.048368e+001 7.262940e+000 -3.153371e-001 -7.910319e+001
4100238500 -8.209847e-001 -8.522862e+001 -2.043962e+001 5.514987e+000 -2.041370e+001 5.507922e+000 -3.573064e-001 -8.075052e+001
4200237000 -7.917937e-001 -8.715953e+001 -2.027116e+001 4.022593e+000 -2.039865e+001 3.754130e+000 -3.885795e-001 -8.204262e+001
4300235500 -8.340175e-001 -8.883414e+001 -2.016976e+001 2.333327e+000 -2.024135e+001 2.338514e+000 -3.151453e-001 -8.397820e+001
4400234000 -8.438194e-001 -9.075573e+001 -2.023726e+001 3.848171e-001 -2.022244e+001 5.898998e-001 -3.590878e-001 -8.510915e+001
4500232500 -8.647382e-001 -9.252276e+001 -2.003976e+001 -1.210957e+000 -2.008700e+001 -1.409344e+000 -3.415621e-001 -8.682198e+001
4600231000 -8.689673e-001 -9.418423e+001 -1.996440e+001 -3.079952e+000 -1.998545e+001 -3.109374e+000 -3.883447e-001 -8.821964e+001
4700229500 -8.922450e-001 -9.588092e+001 -1.989765e+001 -4.767761e+000 -1.990368e+001 -5.202970e+000 -3.942929e-001 -8.975993e+001
4800228000 -8.641950e-001 -9.773918e+001 -1.976065e+001 -6.282479e+000 -1.990362e+001 -6.709935e+000 -3.894503e-001 -9.129968e+001
4900226500 -8.523235e-001 -9.966812e+001 -1.973031e+001 -9.068535e+000 -1.969709e+001 -8.719253e+000 -3.853446e-001 -9.284119e+001
5000225000 -8.876319e-001 -1.012360e+002 -1.960999e+001 -1.077529e+001 -1.973254e+001 -1.066887e+001 -3.647516e-001 -9.472023e+001
5100223500 -8.837723e-001 -1.030084e+002 -1.964469e+001 -1.268260e+001 -1.966062e+001 -1.307468e+001 -4.093156e-001 -9.627339e+001
5200222000 -8.816281e-001 -1.045713e+002 -1.968720e+001 -1.452668e+001 -1.969580e+001 -1.445830e+001 -3.978694e-001 -9.791400e+001
5300220500 -8.586447e-001 -1.064499e+002 -1.965692e+001 -1.609220e+001 -1.961635e+001 -1.684029e+001 -3.776595e-001 -9.956680e+001
5400219000 -8.505722e-001 -1.083255e+002 -1.963400e+001 -1.860020e+001 -1.962648e+001 -1.799855e+001 -3.818885e-001 -1.010978e+002
5500217500 -8.054886e-001 -1.103809e+002 -1.947364e+001 -2.102938e+001 -1.951741e+001 -2.045248e+001 -3.812369e-001 -1.027617e+002
5600216000 -8.010521e-001 -1.120802e+002 -1.958741e+001 -2.281689e+001 -1.958869e+001 -2.253843e+001 -3.922564e-001 -1.047022e+002
5700214500 -8.049952e-001 -1.141802e+002 -1.952928e+001 -2.488693e+001 -1.952310e+001 -2.453449e+001 -3.737661e-001 -1.066105e+002
5800213000 -7.978648e-001 -1.162948e+002 -1.956902e+001 -2.722954e+001 -1.958995e+001 -2.696178e+001 -3.662761e-001 -1.086138e+002
5900211500 -7.649770e-001 -1.183449e+002 -1.963950e+001 -2.888707e+001 -1.955030e+001 -2.953571e+001 -3.485965e-001 -1.108017e+002
6000210000 -7.494272e-001 -1.206471e+002 -1.964193e+001 -3.103346e+001 -1.968133e+001 -3.126905e+001 -3.425622e-001 -1.127640e+002
6100208500 -7.251548e-001 -1.228180e+002 -1.963161e+001 -3.328894e+001 -1.974494e+001 -3.276136e+001 -3.558539e-001 -1.148323e+002
6200207000 -6.787898e-001 -1.255206e+002 -1.969429e+001 -3.551006e+001 -1.967766e+001 -3.481087e+001 -3.272322e-001 -1.171212e+002
6300205500 -6.618526e-001 -1.278408e+002 -1.973933e+001 -3.829505e+001 -1.970633e+001 -3.817730e+001 -3.016485e-001 -1.196265e+002
6400204000 -6.286047e-001 -1.305091e+002 -1.990441e+001 -4.196673e+001 -1.983085e+001 -4.115756e+001 -3.188511e-001 -1.219938e+002
6500202500 -6.254266e-001 -1.329109e+002 -2.022735e+001 -4.480114e+001 -2.027081e+001 -4.451153e+001 -3.233773e-001 -1.246516e+002
6600201000 -6.462561e-001 -1.361489e+002 -2.076769e+001 -4.857518e+001 -2.069807e+001 -4.846721e+001 -3.277008e-001 -1.274541e+002
6700199500 -6.236736e-001 -1.394032e+002 -2.128104e+001 -5.163947e+001 -2.135561e+001 -5.106250e+001 -3.458901e-001 -1.302516e+002
6800198000 -6.469221e-001 -1.428301e+002 -2.213803e+001 -5.348772e+001 -2.218145e+001 -5.373017e+001 -3.375565e-001 -1.331851e+002
6900196500 -6.497995e-001 -1.464306e+002 -2.336465e+001 -5.732177e+001 -2.339614e+001 -5.758836e+001 -3.505008e-001 -1.367397e+002
7000195000 -6.848350e-001 -1.504670e+002 -2.497316e+001 -5.985308e+001 -2.485110e+001 -6.113013e+001 -3.570096e-001 -1.401473e+002
7100193500 -7.078443e-001 -1.545743e+002 -2.750919e+001 -6.249752e+001 -2.755563e+001 -6.309297e+001 -4.012856e-001 -1.441747e+002
7200192000 -7.685459e-001 -1.591007e+002 -3.384476e+001 -5.865608e+001 -3.352374e+001 -6.089586e+001 -4.138541e-001 -1.483977e+002
7300190500 -8.221679e-001 -1.642252e+002 -4.205045e+001 5.560751e+001 -4.094324e+001 5.009988e+001 -5.407758e-001 -1.533672e+002
7400189000 -9.571763e-001 -1.703073e+002 -2.772919e+001 8.431721e+001 -2.782635e+001 8.424535e+001 -6.415946e-001 -1.588106e+002
7500187500 -1.161827e+000 -1.770134e+002 -2.129701e+001 8.207498e+001 -2.145309e+001 8.203577e+001 -7.486430e-001 -1.653873e+002
7600186000 -1.419955e+000 1.751030e+002 -1.663429e+001 7.544513e+001 -1.667423e+001 7.564104e+001 -1.039458e+000 -1.731250e+002
7700184500 -1.879562e+000 1.658681e+002 -1.284570e+001 6.622015e+001 -1.288984e+001 6.650085e+001 -1.419178e+000 1.776470e+002
7800183000 -2.625492e+000 1.541108e+002 -9.523680e+000 5.400676e+001 -9.529757e+000 5.424230e+001 -2.179594e+000 1.657811e+002
7900181500 -3.928925e+000 1.400952e+002 -6.563795e+000 3.912894e+001 -6.623120e+000 3.895568e+001 -3.541670e+000 1.511908e+002
8000180000 -6.343922e+000 1.240421e+002 -4.247206e+000 2.081005e+001 -4.274451e+000 2.060205e+001 -6.163115e+000 1.348482e+002
8100178500 -1.049728e+001 1.094107e+002 -2.711744e+000 3.425661e-001 -2.710626e+000 -1.124348e-001 -1.075639e+001 1.195380e+002
8200177000 -1.721300e+001 1.051057e+002 -1.933582e+000 -1.933632e+001 -1.985665e+000 -1.942901e+001 -1.943477e+001 1.242915e+002
8300175500 -2.515360e+001 1.491260e+002 -1.640734e+000 -3.704252e+001 -1.619109e+000 -3.716986e+001 -2.239756e+001 -1.613765e+002
8400174000 -2.253664e+001 -1.677380e+002 -1.522793e+000 -5.246552e+001 -1.589476e+000 -5.283292e+001 -1.842811e+001 -1.506117e+002
8500172500 -2.345949e+001 -1.560700e+002 -1.538668e+000 -6.738274e+001 -1.586495e+000 -6.757519e+001 -1.904544e+001 -1.541032e+002
8600171000 -2.737694e+001 -1.114977e+002 -1.622760e+000 -8.221017e+001 -1.631089e+000 -8.200124e+001 -2.593682e+001 -1.499613e+002
8700169500 -1.991079e+001 -5.774103e+001 -1.900560e+000 -9.744608e+001 -1.857051e+000 -9.755042e+001 -2.215889e+001 -3.830968e+001
8800168000 -1.298831e+001 -5.706518e+001 -2.372756e+000 -1.132486e+002 -2.422439e+000 -1.134106e+002 -1.336375e+001 -3.994711e+001
8900166500 -8.820684e+000 -6.809689e+001 -3.259670e+000 -1.288961e+002 -3.272334e+000 -1.289276e+002 -8.590918e+000 -5.215558e+001
9000165000 -6.307842e+000 -7.997540e+001 -4.569316e+000 -1.434992e+002 -4.537805e+000 -1.433524e+002 -5.827437e+000 -6.544135e+001
9100163500 -4.610950e+000 -9.176015e+001 -6.146794e+000 -1.561522e+002 -6.041334e+000 -1.557950e+002 -4.133472e+000 -7.737718e+001
9200162000 -3.570781e+000 -1.020410e+002 -7.828979e+000 -1.669477e+002 -7.752583e+000 -1.667892e+002 -3.094283e+000 -8.794702e+001
9300160500 -2.849210e+000 -1.112333e+002 -9.681869e+000 -1.759613e+002 -9.526464e+000 -1.758438e+002 -2.414540e+000 -9.708243e+001
9400159000 -2.357545e+000 -1.188148e+002 -1.147975e+001 1.765911e+002 -1.140993e+001 1.761776e+002 -1.877819e+000 -1.051275e+002
9500157500 -1.990697e+000 -1.260941e+002 -1.344792e+001 1.696543e+002 -1.336658e+001 1.694955e+002 -1.535964e+000 -1.120626e+002
9600156000 -1.769805e+000 -1.322323e+002 -1.547087e+001 1.635693e+002 -1.530255e+001 1.637724e+002 -1.270455e+000 -1.178834e+002
9700154500 -1.582695e+000 -1.381755e+002 -1.754908e+001 1.591291e+002 -1.764460e+001 1.585047e+002 -1.071999e+000 -1.231927e+002
9800153000 -1.454792e+000 -1.436360e+002 -2.003360e+001 1.545672e+002 -1.993592e+001 1.547419e+002 -8.776360e-001 -1.283466e+002
9900151500 -1.317585e+000 -1.484748e+002 -2.273798e+001 1.522664e+002 -2.287290e+001 1.522802e+002 -6.972475e-001 -1.332667e+002
10000150000 -1.287108e+000 -1.529906e+002 -2.632659e+001 1.519593e+002 -2.634941e+001 1.516005e+002 -6.231406e-001 -1.379975e+002
10100148500 -1.256960e+000 -1.574197e+002 -3.116882e+001 1.588772e+002 -3.117622e+001 1.592366e+002 -5.051645e-001 -1.419638e+002
10200147000 -1.263484e+000 -1.617265e+002 -3.672830e+001 -1.680817e+002 -3.732544e+001 -1.681628e+002 -4.054839e-001 -1.464309e+002
10300145500 -1.198878e+000 -1.654924e+002 -3.516037e+001 -1.096205e+002 -3.564897e+001 -1.081060e+002 -3.498901e-001 -1.507462e+002
10400144000 -1.235954e+000 -1.695430e+002 -3.114438e+001 -9.108907e+001 -3.093619e+001 -8.840791e+001 -3.378524e-001 -1.545824e+002
10500142500 -1.226661e+000 -1.730018e+002 -2.767112e+001 -8.720380e+001 -2.783493e+001 -8.688404e+001 -3.033112e-001 -1.587920e+002
10600141000 -1.190686e+000 -1.770943e+002 -2.576085e+001 -8.488380e+001 -2.583397e+001 -8.674466e+001 -3.045387e-001 -1.625279e+002
10700139500 -1.298990e+000 1.790360e+002 -2.418625e+001 -8.938695e+001 -2.416216e+001 -8.879832e+001 -3.026681e-001 -1.662478e+002
10800138000 -1.266026e+000 1.752523e+002 -2.271553e+001 -9.076456e+001 -2.303870e+001 -9.120184e+001 -2.675939e-001 -1.697231e+002
10900136500 -1.353412e+000 1.722843e+002 -2.194991e+001 -9.481727e+001 -2.218584e+001 -9.384738e+001 -3.443388e-001 -1.730767e+002
11000135000 -1.318865e+000 1.683611e+002 -2.144963e+001 -9.565457e+001 -2.124811e+001 -9.700959e+001 -3.941247e-001 -1.764730e+002
11100133500 -1.388207e+000 1.647943e+002 -2.074384e+001 -1.001441e+002 -2.070040e+001 -9.896483e+001 -4.224566e-001 -1.798102e+002
11200132000 -1.337595e+000 1.610291e+002 -2.038159e+001 -1.033355e+002 -2.031883e+001 -1.029011e+002 -5.449520e-001 1.767939e+002
11300130500 -1.423359e+000 1.577010e+002 -1.983527e+001 -1.064104e+002 -1.983994e+001 -1.053541e+002 -5.534915e-001 1.735283e+002
11400129000 -1.410063e+000 1.541407e+002 -1.968392e+001 -1.089292e+002 -1.952087e+001 -1.094814e+002 -6.294661e-001 1.704050e+002
11500127500 -1.463621e+000 1.499926e+002 -1.956396e+001 -1.136863e+002 -1.958115e+001 -1.119399e+002 -6.609809e-001 1.666247e+002
11600126000 -1.498178e+000 1.466227e+002 -1.921250e+001 -1.157848e+002 -1.939449e+001 -1.158648e+002 -7.288292e-001 1.633029e+002
11700124500 -1.516927e+000 1.426523e+002 -1.914399e+001 -1.183344e+002 -1.926168e+001 -1.171468e+002 -7.983141e-001 1.595303e+002
11800123000 -1.538797e+000 1.387217e+002 -1.916630e+001 -1.205658e+002 -1.913995e+001 -1.224125e+002 -8.186677e-001 1.565924e+002
11900121500 -1.493941e+000 1.353354e+002 -1.911039e+001 -1.240139e+002 -1.924238e+001 -1.226998e+002 -9.976236e-001 1.535452e+002
12000120000 -1.530219e+000 1.316184e+002 -1.906078e+001 -1.266432e+002 -1.915185e+001 -1.264445e+002 -9.998274e-001 1.501096e+002
12100118500 -1.581639e+000 1.275948e+002 -1.941477e+001 -1.289042e+002 -1.933410e+001 -1.287642e+002 -1.053724e+000 1.464741e+002
12200117000 -1.619590e+000 1.239138e+002 -1.968625e+001 -1.310921e+002 -1.951879e+001 -1.310970e+002 -1.070925e+000 1.425181e+002
12300115500 -1.619960e+000 1.202922e+002 -1.977669e+001 -1.322735e+002 -1.989069e+001 -1.328231e+002 -1.199717e+000 1.388205e+002
12400114000 -1.636564e+000 1.163560e+002 -2.002934e+001 -1.359578e+002 -2.034156e+001 -1.351246e+002 -1.223226e+000 1.353580e+002
12500112500 -1.685447e+000 1.121769e+002 -2.032763e+001 -1.366533e+002 -2.057630e+001 -1.346870e+002 -1.374161e+000 1.310594e+002
12600111000 -1.661175e+000 1.089124e+002 -2.091334e+001 -1.363023e+002 -2.114350e+001 -1.347487e+002 -1.411233e+000 1.270858e+002
12700109500 -1.692876e+000 1.056800e+002 -2.137722e+001 -1.360916e+002 -2.124673e+001 -1.356536e+002 -1.458888e+000 1.235252e+002
12800108000 -1.677358e+000 1.021858e+002 -2.164371e+001 -1.331643e+002 -2.183400e+001 -1.327034e+002 -1.509814e+000 1.194189e+002
12900106500 -1.772786e+000 9.926399e+001 -2.142434e+001 -1.299193e+002 -2.186348e+001 -1.305773e+002 -1.591446e+000 1.158990e+002
13000105000 -1.815956e+000 9.619390e+001 -2.159688e+001 -1.288121e+002 -2.182388e+001 -1.276248e+002 -1.721061e+000 1.122169e+002
13100103500 -1.860850e+000 9.358914e+001 -2.133396e+001 -1.261366e+002 -2.154749e+001 -1.263119e+002 -1.740594e+000 1.083320e+002
13200102000 -1.877178e+000 9.110169e+001 -2.093037e+001 -1.269498e+002 -2.111011e+001 -1.268056e+002 -1.789583e+000 1.053708e+002
13300100500 -1.856901e+000 8.834191e+001 -2.100717e+001 -1.284835e+002 -2.102257e+001 -1.280560e+002 -1.848290e+000 1.018648e+002
13400099000 -1.823262e+000 8.619869e+001 -2.095051e+001 -1.297649e+002 -2.089553e+001 -1.288456e+002 -1.837872e+000 9.905915e+001
13500097500 -1.920231e+000 8.403606e+001 -2.081488e+001 -1.315168e+002 -2.113279e+001 -1.290951e+002 -1.852920e+000 9.569811e+001
13600096000 -1.947985e+000 8.169027e+001 -2.094110e+001 -1.313916e+002 -2.120969e+001 -1.307003e+002 -1.887869e+000 9.307529e+001
13700094500 -1.923407e+000 7.939847e+001 -2.155840e+001 -1.299513e+002 -2.133756e+001 -1.299045e+002 -1.879297e+000 9.012355e+001
13800093000 -1.982225e+000 7.762707e+001 -2.118479e+001 -1.281680e+002 -2.123354e+001 -1.283810e+002 -1.974043e+000 8.695985e+001
13900091500 -1.995176e+000 7.560276e+001 -2.117454e+001 -1.286886e+002 -2.135207e+001 -1.284042e+002 -2.005864e+000 8.449202e+001
14000090000 -2.071021e+000 7.376578e+001 -2.100604e+001 -1.280561e+002 -2.097856e+001 -1.294674e+002 -2.051367e+000 8.216874e+001
14100088500 -2.118411e+000 7.232510e+001 -2.076390e+001 -1.287687e+002 -2.038407e+001 -1.304977e+002 -2.098510e+000 8.016692e+001
14200087000 -2.175089e+000 7.131689e+001 -2.036583e+001 -1.313002e+002 -2.023182e+001 -1.339735e+002 -2.162328e+000 7.822079e+001
14300085500 -2.205430e+000 7.026349e+001 -2.035912e+001 -1.349768e+002 -2.032747e+001 -1.358307e+002 -2.204833e+000 7.664633e+001
14400084000 -2.229483e+000 6.889610e+001 -2.063730e+001 -1.395659e+002 -2.039528e+001 -1.409540e+002 -2.091017e+000 7.571928e+001
14500082500 -2.282878e+000 6.768204e+001 -2.096904e+001 -1.422459e+002 -2.123289e+001 -1.426635e+002 -2.252850e+000 7.345035e+001
14600081000 -2.229170e+000 6.619334e+001 -2.152058e+001 -1.430082e+002 -2.155207e+001 -1.444660e+002 -2.064510e+000 7.237921e+001
14700079500 -2.286202e+000 6.556186e+001 -2.223074e+001 -1.441429e+002 -2.228450e+001 -1.443637e+002 -2.154484e+000 6.988150e+001
14800078000 -2.252139e+000 6.413755e+001 -2.231075e+001 -1.427828e+002 -2.228544e+001 -1.427074e+002 -2.070975e+000 6.862172e+001
14900076500 -2.263077e+000 6.279998e+001 -2.251071e+001 -1.414470e+002 -2.256225e+001 -1.405589e+002 -2.177183e+000 6.686232e+001
15000075000 -2.342920e+000 6.209503e+001 -2.221702e+001 -1.415437e+002 -2.213306e+001 -1.421539e+002 -2.206672e+000 6.615244e+001
15100073500 -2.465643e+000 6.087516e+001 -2.229220e+001 -1.439486e+002 -2.237450e+001 -1.429537e+002 -2.268888e+000 6.458801e+001
