# GHZ S RI R 50.000000000000
0.001000000000 0.001640848366 0.000130220109 0.997023322890 -0.020147782790 0.997383854728 -0.016904050956 0.003705669197 -0.000100262318
0.001599959000 0.001242220994 0.000540244368 0.998552009118 -0.027935318662 0.994512439305 -0.029762122997 0.004453970074 0.000723294797
0.002199919000 0.002105803430 0.000701243684 0.995487070234 -0.041375835400 0.994053136208 -0.039577424260 0.003175575889 0.000499587157
0.002799879000 0.001317765482 0.000309314273 0.994297435513 -0.053291557976 0.995093259938 -0.048168086536 0.002431879296 0.001212168447
0.003399839000 0.001696848195 0.000532773785 0.993291527302 -0.063196819534 0.993243720932 -0.062330160816 0.002373797465 0.000740066712
0.003999799000 0.001746592443 0.000703172049 0.992660595444 -0.073809956759 0.992424282649 -0.073200019475 0.002230604786 0.000876030260
0.004599759000 0.001710401443 0.000808323970 0.991742959708 -0.085228736435 0.991162078500 -0.084635684917 0.002212779982 0.001064633843
0.005199719000 0.002008676062 0.000798132664 0.989798616277 -0.096222379032 0.991465446301 -0.095152302021 0.001999917595 0.001388037842
0.005799679000 0.001686063619 0.001207741938 0.989265891146 -0.107113853651 0.989113237534 -0.106117978920 0.002206514226 0.001405168689
0.006399639000 0.000828396053 0.001960654246 0.987237115920 -0.115461145367 0.991413468409 -0.118284631000 0.003383942335 0.001233811357
0.006999599000 0.001863001897 0.001336575736 0.986152141335 -0.128629070678 0.986294944243 -0.128306701100 0.002161801023 0.001677579549
0.007599559000 0.001973219261 0.001398328947 0.984630960569 -0.139348706292 0.984616052038 -0.139524223364 0.002140330743 0.001752436676
0.008199519000 0.002201652576 0.001621273099 0.983067733128 -0.150170562420 0.982943544349 -0.150487255105 0.002160284332 0.001716705820
0.008799479000 0.002248415730 0.001745175504 0.981524615784 -0.160515314942 0.981396905407 -0.161116335320 0.002342825839 0.002008460243
0.009399439000 0.002352039071 0.001871971784 0.979445958160 -0.171418774496 0.979472458615 -0.171949716056 0.002342206293 0.002091889668
0.009999399000 0.002434015062 0.001939963165 0.977529561237 -0.181936451371 0.976846461845 -0.182513265887 0.002523577741 0.002228073476
0.010599359000 0.002688770888 0.002006547691 0.975051571856 -0.192922278002 0.975143044314 -0.192960126099 0.002573342164 0.002303794359
0.011199319000 0.002804412645 0.002232655032 0.972917521018 -0.203580241513 0.972836042283 -0.203836163270 0.002652451007 0.002364944730
0.011799279000 0.002936612340 0.002259072114 0.970524398085 -0.214166066604 0.970565723227 -0.214515137134 0.002726954404 0.002448458460
0.012399239000 0.003029899402 0.002250706869 0.967943463420 -0.225140613088 0.967946009036 -0.225673223468 0.002834766694 0.002451764545
0.012999199000 0.003231041523 0.002323213488 0.965321409105 -0.235729030787 0.965535213116 -0.235964515737 0.003085784783 0.002437420250
0.013599159000 0.003436383187 0.002324480319 0.962739956121 -0.246055348660 0.962832245805 -0.246848877006 0.003076655559 0.002529313183
0.014199119000 0.003463270150 0.002336261654 0.959692936581 -0.256719469284 0.960094746254 -0.257463791238 0.003277087350 0.002497789645
0.014799079000 0.003575889672 0.002373529848 0.956875935158 -0.267083643193 0.957201766351 -0.267899538546 0.003394693600 0.002543530757
0.015399039000 0.003781970217 0.002436686333 0.953577971899 -0.277872589537 0.954129554337 -0.278547620090 0.003361418539 0.002514841881
0.015998999000 0.003895947876 0.002474894212 0.950606063897 -0.287906926895 0.950851337682 -0.289178484182 0.003546270178 0.002509142329
0.016598959000 0.004016364188 0.002465788448 0.947358845174 -0.298148501937 0.947527802447 -0.299774591388 0.003607158212 0.002518382994
0.017198919000 0.004102307209 0.002521997706 0.943894723023 -0.308668916508 0.944038408712 -0.310146357178 0.003709009382 0.002491204920
0.017798879000 0.004376851800 0.002490375831 0.940588759687 -0.319125896821 0.940744200017 -0.320248560445 0.003848003719 0.002553017518
0.018398839000 0.004302279328 0.002516750355 0.936871470219 -0.329477684948 0.936876524922 -0.330914030777 0.003928779803 0.002486115830
0.018998799000 0.004606809740 0.002498808714 0.933188148985 -0.339330039094 0.933345494524 -0.340650014913 0.004044733862 0.002525931148
0.019598759000 0.004555041747 0.002631700755 0.929272415301 -0.349533317826 0.929278592507 -0.350896670836 0.004215421246 0.002485113741
0.020198719000 0.004822422121 0.002462347737 0.925352115792 -0.359929470477 0.924949109931 -0.361163211408 0.004257562318 0.002453099008
0.020798679000 0.004824488228 0.002590179312 0.921166731879 -0.369896442316 0.921086951253 -0.371243543257 0.004359514395 0.002487503507
0.021398639000 0.004940170707 0.002658807033 0.916846999051 -0.380055020600 0.916723747423 -0.381272945932 0.004435311749 0.002428565403
0.021998599000 0.005059892972 0.002565229059 0.912604735709 -0.389926804921 0.912210300224 -0.391399812758 0.004554518162 0.002496639465
0.022598559000 0.005274779414 0.002518755921 0.908047209191 -0.400497436084 0.908128449756 -0.400983175816 0.004695465856 0.002406252793
0.023198519000 0.005151300208 0.002494418760 0.903472336147 -0.410190046107 0.903318023561 -0.411281164659 0.004711667939 0.002401890608
0.023798479000 0.005352573538 0.002419280558 0.898964297606 -0.420042536546 0.898899486678 -0.421100146493 0.004883059343 0.002377945707
0.024398439000 0.005459838976 0.002497575156 0.894357243964 -0.429780644201 0.893919293715 -0.431205512101 0.004932765805 0.002321795431
0.024998399000 0.005540611725 0.002468634627 0.889490116681 -0.439621678138 0.889074941126 -0.440718168939 0.005080654652 0.002159633832
0.025598359000 0.005621310139 0.002240162984 0.884231431218 -0.449406907509 0.884074492320 -0.450693563055 0.005247066868 0.002097003801
0.026198319000 0.005860387529 0.002230561285 0.879399219613 -0.458644489784 0.879094272477 -0.460360322865 0.005380657095 0.001976307794
0.026798279000 0.005788491233 0.002149878393 0.874322824120 -0.468352244192 0.873872651902 -0.469961561603 0.005417390962 0.002040070072
0.027398239000 0.006089508543 0.002201476774 0.868951858700 -0.478088257319 0.868498436325 -0.479169454723 0.005540707573 0.001933058080
0.027998199000 0.006053700701 0.002097199491 0.863391684226 -0.487458524458 0.862948801440 -0.489264357735 0.005693740440 0.001899574954
0.028598159000 0.006095888612 0.001971220281 0.857884455820 -0.497411751768 0.857481097277 -0.498796045554 0.005698230886 0.001910417251
0.029198119000 0.006103194222 0.002025333866 0.852245987086 -0.506553173867 0.852112039674 -0.507770122981 0.005720192410 0.001781553772
0.029798079000 0.006216448876 0.001871045211 0.846693981904 -0.515889814003 0.846299693709 -0.516803171792 0.005849639327 0.001712278017
0.030398039000 0.006490308549 0.001893064218 0.840890338717 -0.525127714214 0.840870828157 -0.525792718751 0.005946109533 0.001722677222
0.030997999000 0.006455136689 0.001799621351 0.835040628395 -0.534212714958 0.834806947800 -0.535305578138 0.006086742977 0.001550126568
0.031597959000 0.006553629109 0.001632743131 0.829024333603 -0.543402528215 0.828913360186 -0.544176731573 0.006072113278 0.001548017958
0.032197919000 0.006556832117 0.001568326364 0.822730515938 -0.552707798029 0.822586535018 -0.553518267205 0.006265240337 0.001366053836
0.032797879000 0.006588315918 0.001527504230 0.816649253744 -0.561661422293 0.816284098825 -0.562629346850 0.006310179615 0.001241984193
0.033397839000 0.006674096776 0.001303579340 0.810521289623 -0.570569447236 0.810149150380 -0.571360189591 0.006261522970 0.001206204533
0.033997799000 0.006850387340 0.001347080681 0.804011047339 -0.579338508903 0.803562562163 -0.580186182710 0.006412929484 0.001131379383
0.034597759000 0.006858413537 0.001267669902 0.797696546503 -0.587924096510 0.797292501682 -0.588696827802 0.006516119402 0.000926721818
0.035197719000 0.006884360341 0.001172427389 0.791081881876 -0.596890772464 0.790646109695 -0.597561935741 0.006562785976 0.000884794344
0.035797679000 0.007001339265 0.001077655147 0.784453175713 -0.605484800403 0.783956379539 -0.605995348789 0.006684605036 0.000799290395
0.036397639000 0.006974274075 0.001066408475 0.777405000507 -0.614352124714 0.776936656577 -0.614970639147 0.006628829732 0.000756933768
0.036997599000 0.007022416706 0.000970146396 0.770791896034 -0.622678625252 0.770017507038 -0.623307585357 0.006696320458 0.000550406845
0.037597559000 0.007167121772 0.000859394657 0.764050916742 -0.630954824895 0.763240870395 -0.631661546243 0.006793283866 0.000495962077
0.038197519000 0.007169586565 0.000690502951 0.757234229423 -0.639188675980 0.756532776304 -0.639875615022 0.006852130139 0.000363999049
0.038797479000 0.007155659368 0.000672104748 0.750005417677 -0.647466455291 0.749109461962 -0.648248427673 0.006929318271 0.000228549474
0.039397439000 0.007214290584 0.000508034132 0.742658213691 -0.655830769088 0.741815421399 -0.656324285650 0.006825364306 0.000163344454
0.039997399000 0.007289041868 0.000311703188 0.735316643702 -0.663994900071 0.734326021133 -0.664534919351 0.006980525359 0.000006064603
0.040597359000 0.007407330878 0.000206977319 0.727902311881 -0.671838704413 0.727540766831 -0.672035534761 0.007024291673 -0.000064875145
0.041197319000 0.007448881593 0.000160181727 0.720734543886 -0.679505053258 0.719778465103 -0.679839376197 0.007098652844 -0.000238601297
0.041797279000 0.007630207998 -0.000004158688 0.713181210690 -0.687420604547 0.712376994797 -0.687778491021 0.007083409352 -0.000254485472
0.042397239000 0.007574479093 -0.000087081107 0.705666604605 -0.694854424636 0.704906181390 -0.695311874236 0.007218083164 -0.000485326102
0.042997199000 0.007520706110 -0.000304560584 0.697775444988 -0.702979126244 0.696769090526 -0.703165983890 0.007194754176 -0.000637528330
0.043597159000 0.007613647764 -0.000349854256 0.689771360512 -0.710651770128 0.689310745324 -0.710733633175 0.007219917348 -0.000794657244
0.044197119000 0.007594938024 -0.000420300317 0.681812751661 -0.718130603112 0.681234011510 -0.718230479137 0.007223459031 -0.000739940824
0.044797079000 0.007648980127 -0.000645767136 0.674311222595 -0.725323378435 0.673236018135 -0.725550726783 0.007246331317 -0.000849727096
0.045397039000 0.007673318865 -0.000706195288 0.666337234824 -0.732383666948 0.665420272553 -0.732588849368 0.007252281505 -0.001174411675
0.045996999000 0.007763295641 -0.000790231039 0.657769387556 -0.739764614451 0.656926602924 -0.740166566288 0.007337223160 -0.001299416555
0.046596959000 0.007703293115 -0.000953881792 0.649956906924 -0.746772848125 0.648985646555 -0.747107744265 0.007380642276 -0.001391946500
0.047196919000 0.007724161854 -0.001059171868 0.641616916827 -0.753846240002 0.640746197647 -0.753971729451 0.007349706373 -0.001454066086
0.047796879000 0.007660376478 -0.001266144890 0.633286283277 -0.760556542992 0.632243319284 -0.761131834066 0.007312866791 -0.001594477692
0.048396839000 0.007690061768 -0.001321537194 0.624605632059 -0.767705675181 0.623692012850 -0.768050627695 0.007352801234 -0.001668745751
0.048996799000 0.007742166672 -0.001502106679 0.616215001787 -0.774284714285 0.615237291480 -0.774911024356 0.007318842428 -0.001806951208
0.049596759000 0.007723695919 -0.001597158034 0.607447971789 -0.781192961037 0.606798992686 -0.781285165598 0.007333708372 -0.001967053533
0.050196719000 0.007728287963 -0.001710493352 0.599034836452 -0.787675227067 0.598535457219 -0.787957897480 0.007329200486 -0.002045682243
0.050796679000 0.007677224787 -0.001884848259 0.590653974392 -0.793922410430 0.589730759220 -0.794305308389 0.007335070289 -0.002193351287
0.051396639000 0.007636669651 -0.002114493341 0.581709834233 -0.800406899861 0.581284382957 -0.800666293877 0.007300240561 -0.002462799675
0.051996599000 0.007727548986 -0.002166406404 0.572830883149 -0.806675909771 0.572410241094 -0.806998262070 0.007228751488 -0.002624439440
0.052596559000 0.007517709545 -0.002284760433 0.563951448019 -0.813017392480 0.563447835197 -0.813231047214 0.007221862436 -0.002683268769
0.053196519000 0.007586069349 -0.002457393561 0.555017239323 -0.818918740631 0.554489397840 -0.819235801441 0.007186554614 -0.002882565296
0.053796479000 0.007555492350 -0.002385060060 0.546459129038 -0.824748108948 0.545692325735 -0.825211542191 0.007095012086 -0.002934274136
0.054396439000 0.007536907575 -0.002602273654 0.537312807464 -0.830640275416 0.536463499430 -0.831019134015 0.007041277588 -0.003113864270
0.054996399000 0.007490280295 -0.002827157739 0.527959318721 -0.836535903263 0.527183736080 -0.836780625208 0.007009653021 -0.003221134182
0.055596359000 0.007400740711 -0.002939836537 0.518699326689 -0.842290852777 0.518073067666 -0.842574124982 0.006975937216 -0.003327442511
0.056196319000 0.007422261822 -0.003004920745 0.509771499732 -0.847675595777 0.509115007360 -0.848050311210 0.006981548034 -0.003625962057
0.056796279000 0.007299349168 -0.003183758957 0.500554433123 -0.853218707498 0.499607751372 -0.853543259897 0.006937631794 -0.003646423534
0.057396239000 0.007227414649 -0.003334251355 0.490897191581 -0.858777939862 0.490334416107 -0.858828029431 0.006915376090 -0.003740940961
0.057996199000 0.007357407680 -0.003522838938 0.481584049472 -0.863871969656 0.481071832528 -0.863992407630 0.006774518562 -0.003920597925
0.058596159000 0.007088074523 -0.003605811885 0.472277707692 -0.869251707554 0.471594788500 -0.869343655886 0.006612573725 -0.004045223120
0.059196119000 0.007125071936 -0.003692695466 0.462630717083 -0.874213282527 0.461986989306 -0.874488670717 0.006620988000 -0.004121973109
0.059796079000 0.007131719287 -0.003827667568 0.453040727097 -0.879077311512 0.452233966890 -0.879380344776 0.006612023129 -0.004125072285
0.060396039000 0.006939907036 -0.003817508939 0.443511893462 -0.884136515867 0.442494827300 -0.884301787841 0.006475878494 -0.004418081902
0.060995999000 0.006935209630 -0.003981180141 0.433449514593 -0.888969674923 0.432947256211 -0.888819592628 0.006473756409 -0.004371120263
0.061595959000 0.006961445150 -0.004152140560 0.423612855445 -0.893507281918 0.423556847129 -0.893413844406 0.006426987243 -0.004512507314
0.062195919000 0.006785307354 -0.004284201722 0.414089833260 -0.898073280820 0.413589181681 -0.898052608997 0.006279216915 -0.004616268922
0.062795879000 0.006743301784 -0.004389464642 0.404084686889 -0.902592568612 0.403704742874 -0.902463451855 0.006246761240 -0.004786174409
0.063395839000 0.006631652605 -0.004409121837 0.394634481970 -0.906750605431 0.393885105077 -0.906754102257 0.005986309379 -0.004908530510
0.063995799000 0.006552311805 -0.004747651149 0.384185551954 -0.911149276037 0.384418199022 -0.910838044187 0.005934817096 -0.005113324184
0.064595759000 0.006424061491 -0.004674394564 0.374210856189 -0.915243154802 0.374446951039 -0.915084544603 0.005884313062 -0.005104491817
0.065195719000 0.006433250602 -0.004893851690 0.364483470042 -0.919067601383 0.364341294945 -0.919037912282 0.005730960314 -0.005217823968
0.065795679000 0.006233699890 -0.004810118743 0.354107963555 -0.923158120153 0.353710205963 -0.923143479771 0.005575729295 -0.005253441550
0.066395639000 0.006263088118 -0.004947343384 0.343796667511 -0.926911458712 0.344279353588 -0.926747411997 0.005454984488 -0.005410250907
0.066995599000 0.006010986848 -0.005100245195 0.333852106410 -0.930505954783 0.333862063201 -0.930512751912 0.005472726996 -0.005564065364
0.067595559000 0.005983347580 -0.005279709730 0.323332851232 -0.934187879895 0.324010871711 -0.933881601639 0.005274565172 -0.005489562731
0.068195519000 0.005910802914 -0.005226978273 0.313238483905 -0.937487021801 0.313533269585 -0.937347663134 0.005203507677 -0.005563449768
0.068795479000 0.005775285143 -0.005449051148 0.302908416643 -0.940793543881 0.303135065393 -0.940641320357 0.005214066683 -0.005747196502
0.069395439000 0.005600016207 -0.005449355273 0.292472787039 -0.944038272287 0.292567250998 -0.943982608585 0.005064048544 -0.005837871224
0.069995399000 0.005583065577 -0.005545353627 0.282072215526 -0.947151923887 0.282366118885 -0.947079706215 0.004873271476 -0.005714077104
0.070595359000 0.005458814207 -0.005560029074 0.271827111887 -0.950149731594 0.271937646396 -0.950117672623 0.004777319939 -0.005957580035
0.071195319000 0.005243542783 -0.005751767853 0.261606885600 -0.952926064433 0.261750455361 -0.952923271716 0.004613078948 -0.005967871299
0.071795279000 0.005234471182 -0.005815157934 0.251259268536 -0.955592042245 0.251245009371 -0.955712626461 0.004498913280 -0.006019987713
0.072395239000 0.005094721485 -0.005837030385 0.240704002396 -0.958245419082 0.240669770731 -0.958343505556 0.004351250849 -0.006078336643
0.072995199000 0.004931102668 -0.005898325090 0.230203840814 -0.960887923115 0.230660155088 -0.960734347913 0.004255889342 -0.006154855643
0.073595159000 0.004886557011 -0.006015468410 0.219878059638 -0.963407667101 0.219503489454 -0.963433638950 0.004137436719 -0.006214694824
0.074195119000 0.004820983919 -0.006048430340 0.209276504518 -0.965507603274 0.208986073607 -0.965602611217 0.004085320030 -0.006228765730
0.074795079000 0.004663958392 -0.006141385072 0.198597942946 -0.967786058811 0.198409654952 -0.967801854173 0.003969172456 -0.006307413546
0.075395039000 0.004314474071 -0.006120801340 0.188432125593 -0.969562143368 0.188234938430 -0.969950038636 0.003818133678 -0.006283594399
0.075994999000 0.004272302748 -0.006270112418 0.177514767350 -0.971678157749 0.177356844801 -0.972025519661 0.003680336075 -0.006444767307
0.076594959000 0.004227073459 -0.006232559046 0.166872177827 -0.973636776571 0.166673514627 -0.973893405419 0.003386867420 -0.006394124974
0.077194919000 0.004038207661 -0.006434801385 0.155760527083 -0.975414540149 0.156017360077 -0.975497717651 0.003355497775 -0.006448969224
0.077794879000 0.003986767169 -0.006322279865 0.145230401753 -0.976877163939 0.145322555545 -0.977242335779 0.003234057280 -0.006470224722
0.078394839000 0.003824984170 -0.006430109890 0.134719190835 -0.978450905880 0.134850357898 -0.978575907986 0.003138970018 -0.006491118635
0.078994799000 0.003693614956 -0.006450659940 0.123797312445 -0.979899198139 0.124059910383 -0.980073181336 0.002877187355 -0.006424524065
0.079594759000 0.003531264511 -0.006486048251 0.112960420278 -0.981212684444 0.113337144223 -0.981275172179 0.002799992839 -0.006441382353
0.080194719000 0.003414315755 -0.006598909180 0.102218803186 -0.982288378797 0.102591147208 -0.982403389627 0.002706685625 -0.006474664961
0.080794679000 0.003201633232 -0.006410007386 0.091768392750 -0.983264708427 0.091574056823 -0.983777851620 0.002516221045 -0.006510338296
0.081394639000 0.003206982496 -0.006581375680 0.081110103277 -0.984185647118 0.080841770117 -0.984452377900 0.002318336450 -0.006573785052
0.081994599000 0.003067321257 -0.006519749100 0.070220588854 -0.985021491859 0.069910829548 -0.985298115528 0.002276792888 -0.006518298101
0.082594559000 0.002932258989 -0.006658953518 0.059379768851 -0.985794036857 0.059272599886 -0.985896251336 0.002067066130 -0.006475596891
0.083194519000 0.002744798554 -0.006707113060 0.048564333609 -0.986112735853 0.048238042975 -0.986509456118 0.001948651705 -0.006647285283
0.083794479000 0.002580659466 -0.006562886275 0.037734726203 -0.986529494729 0.037464772824 -0.987109119775 0.001879517349 -0.006472365063
0.084394439000 0.002536204180 -0.006607941833 0.026629359589 -0.987139024823 0.026734233972 -0.987409897508 0.001784908931 -0.006500710770
0.084994399000 0.002333225810 -0.006717808561 0.015768921981 -0.987264684424 0.016221229955 -0.987757906161 0.001627078045 -0.006413791408
0.085594359000 0.002266090972 -0.006634317277 0.005116867539 -0.987407668816 0.005005072951 -0.987842974648 0.001514181570 -0.006483936449
0.086194319000 0.002101140075 -0.006599466840 -0.005632767340 -0.987421496725 -0.005957058945 -0.987802137877 0.001425061235 -0.006496600954
0.086794279000 0.002067013738 -0.006652281472 -0.016862247790 -0.987280023966 -0.017171677978 -0.987647251269 0.001247220965 -0.006482622785
