# GHZ S RI R 50.000000000000
0.001000000000 0.001579107568 -0.000168186208 0.999566162141 -0.010645532873 0.998482719235 -0.009821320589 0.002966680877 -0.001056576430
0.001599959000 0.001716927958 -0.000086795980 0.998343655293 -0.013769706398 0.999189296731 -0.015008106663 0.002905486807 -0.000562287048
0.002199919000 0.001092769654 -0.000153438974 0.998081736718 -0.020709084126 0.996500273520 -0.021347778951 0.002563778411 -0.001108349935
0.002799879000 0.001123170494 -0.000707878085 0.995565707518 -0.028442832465 0.998908475582 -0.024332102865 0.001139796758 -0.000527818964
0.003399839000 0.000756604402 -0.000258957113 0.995840865317 -0.032751614213 0.995771543756 -0.032710669268 0.001320263409 -0.000785234716
0.003999799000 0.000613990671 -0.000214809460 0.995796271206 -0.037853923826 0.995590585554 -0.037985191045 0.001204590451 -0.000608428766
0.004599759000 0.000449385680 -0.000080414963 0.995400490480 -0.043343278858 0.995051321554 -0.043918118866 0.001053795249 -0.000370311999
0.005199719000 0.000726113709 -0.000060483715 0.994467533692 -0.049089177624 0.995978743257 -0.048591137993 0.000836251840 0.000035851300
0.005799679000 0.000314564990 0.000147192502 0.994563990404 -0.054970778352 0.994263605303 -0.055271373890 0.000844201884 -0.000088890709
0.006399639000 0.002010962519 0.000885328161 0.997094783437 -0.059079142614 0.992729057784 -0.063319558896 0.000393653380 -0.001763490535
0.006999599000 0.000319086185 0.000352520517 0.993503321262 -0.066046878153 0.993775153880 -0.066433528553 0.000749402246 0.000247825790
0.007599559000 0.000320464092 0.000558252769 0.993210617918 -0.071643180999 0.993405109725 -0.072176901849 0.000754960288 0.000340727792
0.008199519000 0.000507421344 0.000608045852 0.992858571843 -0.077385863397 0.992629795972 -0.078045004360 0.000723852205 0.000328149886
0.008799479000 0.000434429486 0.000644233958 0.992402721394 -0.082509142969 0.992119983646 -0.084065029681 0.000701214595 0.000587041279
0.009399439000 0.000501484843 0.000786166682 0.991814599237 -0.088240387877 0.991679081142 -0.089160770735 0.000739775013 0.000715901612
0.009999399000 0.000528018495 0.000761897631 0.991449587439 -0.093824715145 0.991081969251 -0.095549402681 0.000779611268 0.000687416900
0.010599359000 0.000667508423 0.000973922780 0.990560143429 -0.099619054433 0.990570591115 -0.100327205925 0.000812107510 0.000851897387
0.011199319000 0.000765114673 0.001063779229 0.990002550548 -0.104938056485 0.990005938111 -0.106084097553 0.000835499510 0.000948443886
0.011799279000 0.000746689231 0.001066213727 0.989310384715 -0.110558034100 0.989433415975 -0.111621652698 0.000898008527 0.000978708578
0.012399239000 0.000813068301 0.001052427653 0.988725305429 -0.116222605532 0.988590264590 -0.117735646487 0.000874423927 0.001058071184
0.012999199000 0.000931903167 0.001201914885 0.987935703285 -0.122085573279 0.987926889465 -0.123143463062 0.001010537741 0.001151246696
0.013599159000 0.000996442190 0.001188357390 0.987281200567 -0.127834003611 0.987088929563 -0.129161315282 0.000949184308 0.001119727403
0.014199119000 0.001007470346 0.001213714321 0.986355675124 -0.133181616849 0.986344038406 -0.134899416442 0.001017532135 0.001170844460
0.014799079000 0.000968794490 0.001185948170 0.985556970159 -0.138855186599 0.985461666639 -0.140520141355 0.001113120945 0.001256496360
0.015399039000 0.001115440661 0.001291694104 0.984654048176 -0.144714471278 0.984667038285 -0.145972309371 0.001065050811 0.001220609963
0.015998999000 0.001242252203 0.001322764910 0.983863049537 -0.149861636438 0.983759196826 -0.151922047486 0.001065789872 0.001333774161
0.016598959000 0.001231500024 0.001355231693 0.982966871146 -0.155541787844 0.982700436868 -0.157348180820 0.001180340312 0.001345245815
0.017198919000 0.001309212691 0.001436083883 0.982136119180 -0.160831955654 0.981846651620 -0.162760549363 0.001276968931 0.001436172522
0.017798879000 0.001425447435 0.001436035361 0.981179198217 -0.166953635317 0.980948447770 -0.168770175754 0.001196208976 0.001323981521
0.018398839000 0.001396668228 0.001407623676 0.980012870359 -0.172318884041 0.979922212222 -0.174423836684 0.001239207395 0.001414522891
0.018998799000 0.001691327405 0.001601512966 0.978920334935 -0.177855634404 0.978931349697 -0.179604923729 0.001304715071 0.001479548837
0.019598759000 0.001522518170 0.001528556778 0.977751504554 -0.183516108300 0.977709255825 -0.185098513168 0.001338257028 0.001496019195
0.020198719000 0.001613126590 0.001523510409 0.976645523501 -0.189168495423 0.976114525395 -0.190987605802 0.001291647655 0.001453881502
0.020798679000 0.001714259910 0.001626011136 0.975534557834 -0.194441586201 0.975297897285 -0.196174680738 0.001399489267 0.001558219629
0.021398639000 0.001704657696 0.001645931427 0.974311504077 -0.200099033459 0.974089496639 -0.201470186872 0.001512020178 0.001615513735
0.021998599000 0.001804645394 0.001654111174 0.973266557242 -0.205374693450 0.973003870885 -0.207054966539 0.001495716216 0.001654119915
0.022598559000 0.001949168893 0.001672832780 0.972176029316 -0.210985239164 0.971877115480 -0.212323834353 0.001596806036 0.001621917222
0.023198519000 0.001901287974 0.001662982027 0.970691124261 -0.216334331789 0.970293915624 -0.218189988206 0.001569992846 0.001673159106
0.023798479000 0.001978275246 0.001641224328 0.969351423881 -0.222231375571 0.969194413611 -0.223414115826 0.001595993636 0.001632386820
0.024398439000 0.002078614923 0.001762815480 0.968116134880 -0.227627254532 0.967662731999 -0.229278989408 0.001592201855 0.001668030927
0.024998399000 0.002103466804 0.001730676753 0.966633741590 -0.233239890703 0.966616992155 -0.234650594087 0.001744204751 0.001622535031
0.025598359000 0.002130227839 0.001628095436 0.965325590327 -0.238462429170 0.965003492523 -0.240382138965 0.001766938173 0.001647074841
0.026198319000 0.002217555176 0.001652662283 0.964023791976 -0.243650598839 0.963678996599 -0.245984605272 0.001790378515 0.001599711704
0.026798279000 0.002343187353 0.001646904111 0.962567957175 -0.249234611465 0.962287721112 -0.251635182509 0.001840874069 0.001672526808
0.027398239000 0.002379083208 0.001740653070 0.960897553665 -0.254885740760 0.960772418393 -0.256817040599 0.001817554500 0.001662622231
0.027998199000 0.002445370066 0.001693511216 0.959430058192 -0.260200125486 0.959153728707 -0.262286037272 0.001936792662 0.001643978421
0.028598159000 0.002489709887 0.001712974898 0.957870738996 -0.265971352540 0.957742666450 -0.267511636139 0.001926322441 0.001738190734
0.029198119000 0.002437110985 0.001735355100 0.956407855391 -0.271267701593 0.956032111031 -0.273342318636 0.001970324813 0.001651327638
0.029798079000 0.002552825543 0.001659724573 0.954885122289 -0.276834874697 0.954489502811 -0.278445514694 0.002020337753 0.001660620873
0.030398039000 0.002706204053 0.001709440691 0.953244567413 -0.282062023086 0.952907376111 -0.283683442846 0.002140014510 0.001693637905
0.030997999000 0.002750307360 0.001644250254 0.951570516204 -0.287578092352 0.951336844456 -0.289159525302 0.002187539206 0.001621542005
0.031597959000 0.002780985245 0.001636613219 0.949713350389 -0.293112406174 0.949559890221 -0.294592233105 0.002176270781 0.001646674354
0.032197919000 0.002723822493 0.001574838862 0.948030270650 -0.298645949640 0.947748843217 -0.300059425327 0.002260494118 0.001644415664
0.032797879000 0.002762510343 0.001603575179 0.946406230918 -0.303816893535 0.945919904303 -0.305491647201 0.002322566926 0.001603827677
0.033397839000 0.002812354519 0.001460441958 0.944839100707 -0.309479307529 0.944187577506 -0.311055047462 0.002249792313 0.001579820342
0.033997799000 0.002976133194 0.001561628178 0.942831490205 -0.314962408681 0.942248931562 -0.316478740789 0.002345140133 0.001561886957
0.034597759000 0.002944048670 0.001579033493 0.941161780291 -0.319944138447 0.940476532357 -0.321956725585 0.002532223362 0.001433049673
0.035197719000 0.002994834676 0.001552436909 0.939233461847 -0.325562661009 0.938842024272 -0.327030769815 0.002501671819 0.001522350281
0.035797679000 0.003038389085 0.001517820908 0.937168935766 -0.331090954982 0.936710938754 -0.332097121423 0.002555369745 0.001513660056
0.036397639000 0.003014211144 0.001497560507 0.935117538356 -0.336455090098 0.934809474056 -0.337804030223 0.002482342898 0.001527887951
0.036997599000 0.003126271705 0.001485309358 0.933410682709 -0.341594263491 0.932710079103 -0.343093058752 0.002595643330 0.001460702240
0.037597559000 0.003139236897 0.001502046063 0.931363285109 -0.346896109654 0.930904681047 -0.348324212921 0.002655242376 0.001398401702
0.038197519000 0.003202095666 0.001427044194 0.929553169341 -0.351910759296 0.928969844178 -0.353644073937 0.002738778139 0.001442440047
0.038797479000 0.003253164167 0.001377629882 0.927573659236 -0.357158859740 0.926931022546 -0.358937924271 0.002847368138 0.001348687387
0.039397439000 0.003233824822 0.001335064834 0.925330436635 -0.362795043352 0.924609956929 -0.364553431238 0.002769979821 0.001311311992
0.039997399000 0.003259384942 0.001291007022 0.923209735050 -0.367928927581 0.922427354762 -0.369665330996 0.002866931596 0.001303610671
0.040597359000 0.003394719673 0.001348671558 0.921195702699 -0.373207225779 0.920580429744 -0.374283636674 0.002936238586 0.001278368947
0.041197319000 0.003475304521 0.001305097826 0.918968665388 -0.378387277753 0.918412764111 -0.379750973969 0.002968299709 0.001211678745
0.041797279000 0.003544702923 0.001294258146 0.916871864417 -0.383602934615 0.916367590465 -0.384820343700 0.002947940224 0.001200479525
0.042397239000 0.003566934547 0.001238869984 0.914583680928 -0.388613386734 0.914019782459 -0.390194222784 0.003133590226 0.001179911769
0.042997199000 0.003591367878 0.001174483778 0.912182042515 -0.394488074692 0.911352689230 -0.395677665497 0.002994808978 0.001170147082
0.043597159000 0.003605344270 0.001162977383 0.909755084618 -0.399595352240 0.909393947994 -0.400870785419 0.003215268023 0.001033386741
0.044197119000 0.003588791031 0.001143820337 0.907526255469 -0.404842781078 0.906914392986 -0.405985444539 0.003088198371 0.001119913722
0.044797079000 0.003619711998 0.001103880007 0.905523749915 -0.409831262592 0.904579346533 -0.411079995716 0.003194676784 0.001128117423
0.045397039000 0.003712314550 0.001057121964 0.903090845427 -0.414815191315 0.902270985028 -0.415886450012 0.003300901667 0.000970152266
0.045996999000 0.003702235985 0.001084697765 0.900671779667 -0.419858465438 0.899729653963 -0.421694737162 0.003268168268 0.000930222430
0.046596959000 0.003795957735 0.000963215240 0.898081181165 -0.425105163893 0.897396248266 -0.426537899947 0.003331287726 0.000946075165
0.047196919000 0.003725528778 0.001017649370 0.895568284931 -0.430163639404 0.894816239915 -0.431753408308 0.003339894451 0.000939739515
0.047796879000 0.003759510712 0.000851686074 0.893274072365 -0.435152002339 0.892428790776 -0.436626720069 0.003467418603 0.000859486579
0.048396839000 0.003796865932 0.000935975056 0.890510966310 -0.440511293517 0.889816377592 -0.441807134843 0.003394042356 0.000816078230
0.048996799000 0.003873600112 0.000920197103 0.888162701128 -0.445314432407 0.887323573715 -0.446789920263 0.003491179685 0.000765916133
0.049596759000 0.003875720348 0.000834914787 0.885427936922 -0.450735289869 0.884857444816 -0.451539045021 0.003552110459 0.000675006788
0.050196719000 0.003862065978 0.000753678026 0.882961908364 -0.455332119499 0.882251596871 -0.456730290046 0.003565235258 0.000738707286
0.050796679000 0.003914931968 0.000803215060 0.880384615105 -0.460084512420 0.879595226112 -0.461804885666 0.003602489842 0.000727272416
0.051396639000 0.003958170484 0.000613521080 0.877777482992 -0.464926157403 0.877054531008 -0.466583817722 0.003778583488 0.000570657215
0.051996599000 0.004050866050 0.000766622244 0.874752356016 -0.470416963428 0.874280263952 -0.471584134200 0.003753978628 0.000519285131
0.052596559000 0.004033137153 0.000529433748 0.872216421242 -0.475126139337 0.871675131720 -0.476359276624 0.003829277705 0.000496043016
0.053196519000 0.004102112936 0.000555416608 0.869388303792 -0.479813485993 0.868971755786 -0.481073257389 0.003889290965 0.000402280027
0.053796479000 0.004067854601 0.000654368109 0.866770269646 -0.484768063770 0.865954118616 -0.486277314597 0.003878736457 0.000275131224
0.054396439000 0.004120458676 0.000450635659 0.863994569754 -0.489653663137 0.863348769050 -0.491026962405 0.003871414543 0.000317495889
0.054996399000 0.004205621641 0.000375236813 0.860947362290 -0.494764144511 0.860263167471 -0.495848023229 0.003917863093 0.000302986825
0.055596359000 0.004175261782 0.000369101655 0.858211572957 -0.499374744610 0.857648867829 -0.500818999950 0.003935938046 0.000206838282
0.056196319000 0.004207745874 0.000369205723 0.855527676462 -0.504127542324 0.854710996071 -0.505447873604 0.004082880235 0.000140279803
0.056796279000 0.004218476254 0.000217021997 0.852678328219 -0.508825888716 0.851941616826 -0.510342057590 0.004050131705 0.000170501211
0.057396239000 0.004211400373 0.000132158746 0.849621921044 -0.513833451987 0.848742322369 -0.514841291938 0.004120498152 0.000091484254
0.057996199000 0.004339577786 0.000171449763 0.846718625574 -0.518718426390 0.845889023397 -0.519810874548 0.004127658501 -0.000042899839
0.058596159000 0.004297241627 0.000036623745 0.843699160240 -0.523507946167 0.842803098174 -0.524371881361 0.004125816715 -0.000138141771
0.059196119000 0.004344483727 0.000021297212 0.840879173331 -0.528064063730 0.840002806128 -0.529184877903 0.004219452156 -0.000129037565
0.059796079000 0.004337299367 0.000045852037 0.837781553351 -0.532874966182 0.836880314822 -0.533966454973 0.004170820469 -0.000115914098
0.060396039000 0.004269761494 -0.000064606845 0.834974304530 -0.537331404251 0.833682705730 -0.538728664397 0.004282926269 -0.000287549143
0.060995999000 0.004351990231 -0.000075603193 0.831752843293 -0.542335737398 0.830572617581 -0.543453341135 0.004151012816 -0.000253010494
0.061595959000 0.004412669325 -0.000111029423 0.828540074991 -0.546836936465 0.827771838385 -0.548004846717 0.004288078088 -0.000308521916
0.062195919000 0.004402704970 -0.000169068084 0.825434934686 -0.551679772519 0.824484051585 -0.552796251004 0.004240626809 -0.000351407584
0.062795879000 0.004451765402 -0.000243051072 0.822389596995 -0.556261269228 0.821247981602 -0.557470981976 0.004322532903 -0.000448368453
0.063395839000 0.004460502334 -0.000370317750 0.819314198838 -0.560935181704 0.818131000508 -0.562148510074 0.004309013236 -0.000586323332
0.063995799000 0.004484063410 -0.000423789053 0.815966082561 -0.565631878399 0.815233917661 -0.566270998060 0.004322019872 -0.000644941683
0.064595759000 0.004414597363 -0.000424875555 0.812740456995 -0.570161227486 0.811997094536 -0.571152653844 0.004373772449 -0.000618885183
0.065195719000 0.004500511912 -0.000491754040 0.809709972062 -0.574670547511 0.808523567622 -0.575683913813 0.004369878764 -0.000715227906
0.065795679000 0.004395124487 -0.000516363217 0.805933460047 -0.579720788157 0.805260548157 -0.580521753344 0.004304062004 -0.000859905637
0.066395639000 0.004485541596 -0.000622150927 0.802782279109 -0.584034641157 0.802049322901 -0.584592964604 0.004391006547 -0.000862743829
0.066995599000 0.004420085469 -0.000687015995 0.799562044782 -0.588385924708 0.798720306596 -0.589368496935 0.004489491270 -0.000978263797
0.067595559000 0.004551721263 -0.000775223832 0.796100539532 -0.593142387713 0.795322458925 -0.593613966575 0.004368574520 -0.001071751835
0.068195519000 0.004473589544 -0.000796765960 0.792821777044 -0.597527762703 0.791984445486 -0.598163516574 0.004403948651 -0.001110179467
0.068795479000 0.004504020937 -0.000850411054 0.789225355857 -0.601871517837 0.788531489864 -0.602538668037 0.004471177062 -0.001098288830
0.069395439000 0.004468069797 -0.000903297315 0.785959575010 -0.606288941803 0.784759631653 -0.607391759576 0.004510652250 -0.001199468457
0.069995399000 0.004467487999 -0.000924208292 0.782253848498 -0.610872525950 0.781535199756 -0.611599654935 0.004341826513 -0.001238246454
0.070595359000 0.004446968304 -0.000943784578 0.778821092555 -0.615220578944 0.778072548250 -0.616018113705 0.004437169652 -0.001338484223
0.071195319000 0.004479521222 -0.001141865358 0.775539661584 -0.619620175361 0.774674853868 -0.620111858430 0.004421482414 -0.001399434473
0.071795279000 0.004537721451 -0.001179896229 0.771982795077 -0.623679502964 0.771164812385 -0.624584994026 0.004414665430 -0.001509632135
0.072395239000 0.004519111290 -0.001256125209 0.768516363284 -0.627867339678 0.767453432278 -0.628976769729 0.004425640648 -0.001603523659
0.072995199000 0.004453470164 -0.001245317455 0.764974840574 -0.632355147366 0.763976425168 -0.633170885845 0.004433353180 -0.001594990966
0.073595159000 0.004475095814 -0.001336307179 0.761363406546 -0.636626169923 0.759989639890 -0.638168526121 0.004448922169 -0.001656905599
0.074195119000 0.004546631733 -0.001404446921 0.757742499392 -0.640776596725 0.756685065841 -0.641727921133 0.004478175689 -0.001689160193
0.074795079000 0.004528083450 -0.001380875171 0.754137363978 -0.645220581274 0.752477950598 -0.646383454486 0.004403335947 -0.001798955467
0.075395039000 0.004351861363 -0.001646980545 0.750633609017 -0.649286115011 0.749304998613 -0.650331483844 0.004397489611 -0.001875796778
0.075994999000 0.004451537589 -0.001681029629 0.746659007534 -0.653676912020 0.745610227542 -0.654549549420 0.004470770514 -0.001997575461
0.076594959000 0.004384343704 -0.001636285205 0.742903365533 -0.657748332778 0.741825496350 -0.658942532503 0.004338143588 -0.002105780414
0.077194919000 0.004464608776 -0.001769115525 0.739072348928 -0.662286754374 0.737915356259 -0.662990545151 0.004335189868 -0.002125966070
0.077794879000 0.004307331431 -0.001744743968 0.735295406788 -0.666139990266 0.734635563503 -0.667134950178 0.004373681518 -0.002219480028
0.078394839000 0.004496952255 -0.001800191483 0.731708565265 -0.670184955121 0.730610338983 -0.670850935026 0.004376709021 -0.002169046696
0.078994799000 0.004357937197 -0.001939965428 0.727829952286 -0.674138760464 0.726774884357 -0.675053907445 0.004292254862 -0.002363222369
0.079594759000 0.004393455333 -0.001975925111 0.723779327110 -0.678581709062 0.723014385358 -0.679186039354 0.004310620990 -0.002329358516
0.080194719000 0.004356621931 -0.002077882260 0.719890302751 -0.682692301058 0.719038614553 -0.683305080863 0.004262800404 -0.002329280331
0.080794679000 0.004260180643 -0.002126297779 0.716299495180 -0.686495268669 0.715421205251 -0.687255373890 0.004266789449 -0.002618959929
0.081394639000 0.004323113019 -0.002109696350 0.712387034180 -0.690596611771 0.711147972002 -0.691532928124 0.004248890534 -0.002666009302
0.081994599000 0.004221645247 -0.002211417163 0.708281203611 -0.694691522005 0.707068427821 -0.695641369072 0.004262710415 -0.002652824619
0.082594559000 0.004223748771 -0.002370173444 0.704572859285 -0.698748225581 0.703154190091 -0.699348457702 0.004140367207 -0.002756747218
0.083194519000 0.004230476658 -0.002433673233 0.700507979655 -0.702503494110 0.699202349477 -0.703426352185 0.004227105506 -0.002814684034
0.083794479000 0.004109472323 -0.002443005816 0.696260351064 -0.706554743708 0.695210080358 -0.707425657800 0.004170197148 -0.002717490733
0.084394439000 0.004165758710 -0.002393246895 0.692252892496 -0.710534636369 0.691151896096 -0.711386119707 0.004158603462 -0.002841670289
0.084994399000 0.004175039370 -0.002538279366 0.688174293300 -0.714588805116 0.687329763875 -0.715193656375 0.004036448435 -0.002928995220
0.085594359000 0.004061456889 -0.002582258160 0.684237876185 -0.718289405456 0.683028980159 -0.719010445869 0.004130602557 -0.003037741007
0.086194319000 0.004014582710 -0.002639729029 0.680241303279 -0.721964898228 0.679242253598 -0.722527164732 0.004060526441 -0.003108438266
0.086794279000 0.004041755323 -0.002649801957 0.676339192578 -0.725574447958 0.674636752613 -0.726713997629 0.004059461038 -0.003189904203
