# GHZ S RI R 50.000000000000
0.001000000000 0.000457769572 -0.000791219082 0.999132247112 -0.006438216908 0.996570362871 -0.014198597743 0.005083575115 0.000045458337
0.001599959000 0.000937525177 -0.000272930465 0.999941095939 -0.012530335254 0.996749339871 -0.016159109993 0.004073722365 -0.000744704183
0.002199919000 0.001605189438 -0.000463322127 0.997387709083 -0.020564753993 0.997189452891 -0.020209541687 0.002633665581 -0.001269965909
0.002799879000 0.000419279749 -0.000253323130 0.997796177966 -0.024309437799 0.994487959174 -0.027242547538 0.002632318342 -0.001310815608
0.003399839000 0.000890605228 -0.000597554305 0.996018348196 -0.031995412736 0.996200901156 -0.031615064735 0.001543899861 -0.001142916783
0.003999799000 0.000716419615 -0.000558720082 0.995757579393 -0.037030973124 0.995602830930 -0.036948505738 0.001336602485 -0.000972129061
0.004599759000 0.000585857176 -0.000544396591 0.995345095938 -0.042750701536 0.995306084167 -0.043214276670 0.001142547312 -0.000782831526
0.005199719000 0.000515785868 -0.000344304970 0.994696245393 -0.048418823880 0.994770900928 -0.048283222226 0.000919922721 -0.000583210968
0.005799679000 0.000380286652 -0.000151786928 0.994626758196 -0.054074234719 0.994449837172 -0.054839606127 0.000821918907 -0.000660217498
0.006399639000 -0.000372900580 0.000106647987 0.993381924066 -0.058870016141 0.996268560642 -0.060044619674 0.001349501045 -0.000402092108
0.006999599000 0.000334854387 -0.000138085408 0.993567297337 -0.065028467610 0.993677667320 -0.065699846956 0.000694799618 -0.000301580376
0.007599559000 0.000349137096 -0.000038502963 0.993284320828 -0.070632330730 0.993413078895 -0.071418423902 0.000629810628 -0.000232396870
0.008199519000 0.000390254185 0.000026221238 0.992848909572 -0.076179487072 0.992548052721 -0.076996160124 0.000665511936 -0.000179034535
0.008799479000 0.000365924510 0.000116910688 0.992385612311 -0.081662353204 0.992175681504 -0.082675842528 0.000658392614 0.000022575364
0.009399439000 0.000413208625 0.000120279539 0.991771781560 -0.087481226036 0.991659084958 -0.087929798001 0.000611097123 0.000062389238
0.009999399000 0.000465032666 0.000191904599 0.991392641322 -0.092904261646 0.990554456346 -0.093210282561 0.000732292318 0.000215088017
0.010599359000 0.000652330180 0.000325131701 0.990497183395 -0.098275191106 0.990517266442 -0.098972235050 0.000606303494 0.000203759276
0.011199319000 0.000532482729 0.000352097088 0.989891956254 -0.103790253857 0.989827829903 -0.104871359736 0.000629633185 0.000278942028
0.011799279000 0.000604965750 0.000352783312 0.989243287535 -0.109364774517 0.989316413551 -0.110436268502 0.000667829252 0.000331139401
0.012399239000 0.000639684487 0.000268666087 0.988583462562 -0.115124957825 0.988484272169 -0.116539667489 0.000684258993 0.000311149182
0.012999199000 0.000878908018 0.000404254429 0.987890371081 -0.120593795025 0.988032405617 -0.121587100942 0.000768837610 0.000326861357
0.013599159000 0.000875382223 0.000395462910 0.987323148979 -0.126462486952 0.987050422154 -0.127409077424 0.000673441051 0.000358437665
0.014199119000 0.000870456850 0.000348644815 0.986494875153 -0.131712478434 0.986329960551 -0.133052685730 0.000815319073 0.000382119412
0.014799079000 0.000955204832 0.000368559050 0.985535953715 -0.137663184981 0.985531075804 -0.138256054575 0.000848390996 0.000449934135
0.015399039000 0.000961123340 0.000372054783 0.984773125072 -0.143190988533 0.984686506418 -0.144129431128 0.000848464329 0.000364083788
0.015998999000 0.001098695698 0.000435742547 0.984111105309 -0.148452989883 0.983797211829 -0.149640039658 0.000879445055 0.000442945233
0.016598959000 0.001147431245 0.000418797726 0.983051099480 -0.153823496745 0.982729377579 -0.155581787507 0.000831895992 0.000414823328
0.017198919000 0.001150483370 0.000426788000 0.982191708366 -0.159324009892 0.981878355889 -0.160721687809 0.000928735744 0.000422612023
0.017798879000 0.001288049910 0.000408619155 0.981298976038 -0.164931035152 0.980945987091 -0.166453016822 0.000916314483 0.000480980493
0.018398839000 0.001195221428 0.000367304471 0.980066628258 -0.170683643483 0.979799600468 -0.172266217354 0.000886833191 0.000419330772
0.018998799000 0.001528783167 0.000440605136 0.979177963437 -0.175820740619 0.978806284134 -0.177621301603 0.000940207427 0.000482487999
0.019598759000 0.001285939166 0.000495372719 0.978111103305 -0.181380856100 0.977807176899 -0.182659660001 0.001055561583 0.000490081954
0.020198719000 0.001506812273 0.000419343110 0.976836382248 -0.186995954242 0.976444158086 -0.188261774173 0.000942997060 0.000452531371
0.020798679000 0.001527143671 0.000425083683 0.975770740837 -0.192216962637 0.975615727569 -0.193900776691 0.001051862601 0.000508073631
0.021398639000 0.001510787595 0.000474228786 0.974635207306 -0.197792050843 0.974294025489 -0.199091957247 0.001045268420 0.000433924772
0.021998599000 0.001633348044 0.000448471215 0.973403955552 -0.203052623084 0.973003644907 -0.204776047194 0.001067977368 0.000508684479
0.022598559000 0.001665340604 0.000379015263 0.972289678316 -0.208837798870 0.971940812414 -0.209996502208 0.001175245796 0.000459396395
0.023198519000 0.001720103783 0.000389944678 0.970986206888 -0.213954876043 0.970834280510 -0.215437609388 0.001130066744 0.000458744710
0.023798479000 0.001728790685 0.000274333999 0.969657658156 -0.219648864345 0.969464252605 -0.221217936564 0.001142239631 0.000413538971
0.024398439000 0.001847274183 0.000319846714 0.968448909072 -0.225331329257 0.968126650963 -0.227124686028 0.001056098756 0.000360464859
0.024998399000 0.001897832693 0.000314859298 0.966991116733 -0.231157767212 0.967000642330 -0.232129752157 0.001172887110 0.000282536817
0.025598359000 0.001892389506 0.000182416764 0.965548732888 -0.236384841168 0.965573425885 -0.238105674291 0.001177807389 0.000291802390
0.026198319000 0.001946045048 0.000251447627 0.964378194702 -0.241592181902 0.964224632818 -0.243670592527 0.001223826234 0.000211893801
0.026798279000 0.001918674161 0.000147182932 0.962839061528 -0.247122852879 0.962754242579 -0.249282320125 0.001168555523 0.000330457439
0.027398239000 0.002134592442 0.000204076881 0.961496170035 -0.252675652124 0.961024649825 -0.254418345183 0.001242341275 0.000264243208
0.027998199000 0.002093484530 0.000165835800 0.959830571530 -0.258035083719 0.959566586370 -0.259879514184 0.001276141202 0.000257887962
0.028598159000 0.002174035385 0.000116690792 0.958493183707 -0.263441087010 0.958094786066 -0.265301622992 0.001297079352 0.000265934071
0.029198119000 0.002142144299 0.000104862271 0.956868788568 -0.268779037086 0.956804531100 -0.270561593930 0.001259309329 0.000174382670
0.029798079000 0.002250526829 -0.000008597042 0.955569546955 -0.274313355859 0.955212111501 -0.275645916609 0.001416695008 0.000119437290
0.030398039000 0.002383870277 0.000035660344 0.953709814916 -0.279654186189 0.953671818185 -0.281049396461 0.001390020730 0.000164360302
0.030997999000 0.002388998277 -0.000036571367 0.952203395115 -0.284938925183 0.951891127243 -0.286477141490 0.001486209035 0.000095353346
0.031597959000 0.002443046470 -0.000124509622 0.950447263250 -0.290605733120 0.950382187757 -0.291641843436 0.001421448255 0.000050248238
0.032197919000 0.002443040526 -0.000158777456 0.948739184919 -0.295911790868 0.948571278763 -0.297072575705 0.001525997112 0.000011259062
0.032797879000 0.002398605058 -0.000192713540 0.947150830076 -0.301260134714 0.946771430964 -0.302590612244 0.001603904588 -0.000009756748
0.033397839000 0.002462619231 -0.000308000875 0.945458398799 -0.306607417523 0.945026308919 -0.307918110497 0.001504977565 -0.000043272180
0.033997799000 0.002548584742 -0.000273056238 0.943458147624 -0.312080056611 0.943112806998 -0.313298150404 0.001487943657 -0.000092317703
0.034597759000 0.002528114151 -0.000287402160 0.941886000857 -0.316999919188 0.941425446939 -0.318616535043 0.001634020459 -0.000200406375
0.035197719000 0.002620269955 -0.000388627531 0.939768233262 -0.322617941217 0.939522339646 -0.324153861476 0.001596703595 -0.000140011741
0.035797679000 0.002664111064 -0.000437028491 0.938076724764 -0.328120118642 0.937575121783 -0.329251419401 0.001659126432 -0.000261809104
0.036397639000 0.002534801672 -0.000458138079 0.935959948971 -0.333711318720 0.935637715838 -0.335007777928 0.001491176486 -0.000213323096
0.036997599000 0.002676232826 -0.000449768224 0.934229917726 -0.338608864788 0.933651221835 -0.339876645808 0.001652642129 -0.000312286262
0.037597559000 0.002699951448 -0.000551362624 0.932318924017 -0.343754308885 0.931677660934 -0.345136294391 0.001632284832 -0.000338787323
0.038197519000 0.002764862876 -0.000596662277 0.930400378702 -0.348996851692 0.929886394665 -0.350462070899 0.001693062306 -0.000401555205
0.038797479000 0.002733606800 -0.000680697253 0.928497088280 -0.353992355945 0.927804787936 -0.355740403627 0.001803957733 -0.000473368787
0.039397439000 0.002768207640 -0.000749931760 0.926189466694 -0.359649947921 0.925669551525 -0.361086241237 0.001697124550 -0.000532836303
0.039997399000 0.002807438644 -0.000813828931 0.924204133880 -0.364709722026 0.923540048587 -0.366148775942 0.001813421306 -0.000530332854
0.040597359000 0.002987336150 -0.000871995190 0.922073788412 -0.370007276476 0.921973266515 -0.370471058426 0.001875178066 -0.000619084445
0.041197319000 0.002903782777 -0.000875662692 0.920188033877 -0.375127905133 0.919522449713 -0.376265575287 0.001882363310 -0.000693188056
0.041797279000 0.002936650213 -0.000908585900 0.918055829119 -0.380390644455 0.917307075019 -0.381625766733 0.001826453559 -0.000702763772
0.042397239000 0.002952146630 -0.000987817140 0.915884767098 -0.385168267747 0.915355657337 -0.386759185011 0.001881493400 -0.000744793357
0.042997199000 0.002974151389 -0.001079515292 0.913458878747 -0.390887869951 0.912915331152 -0.391889091582 0.001839411111 -0.000793964312
0.043597159000 0.002983543088 -0.001117269851 0.911172322017 -0.396045245767 0.910803024129 -0.397114272283 0.001870770286 -0.000884381171
0.044197119000 0.002951280779 -0.001161332698 0.908835151724 -0.401392808630 0.908225142768 -0.402239771959 0.001852853746 -0.000847029956
0.044797079000 0.002972747884 -0.001271960839 0.906802448363 -0.406308284562 0.905999981349 -0.407420528075 0.001869743853 -0.000928980645
0.045397039000 0.003113737553 -0.001368739998 0.904375671545 -0.411367170269 0.903826857134 -0.412243344202 0.002017295314 -0.001095656661
0.045996999000 0.003141062811 -0.001351010337 0.902022401842 -0.416320894525 0.901394340461 -0.417826518255 0.001971404069 -0.001217680703
0.046596959000 0.003166146765 -0.001497855230 0.899607767190 -0.421529732504 0.898985287879 -0.422757740080 0.002009300323 -0.001166196864
0.047196919000 0.003032396193 -0.001495375473 0.897009721291 -0.426677896491 0.896387014447 -0.427893667964 0.001970772215 -0.001100720559
0.047796879000 0.003066324953 -0.001638593554 0.894678525745 -0.431709201470 0.894082713039 -0.432795891713 0.001968415918 -0.001229710339
0.048396839000 0.003052526117 -0.001581686183 0.892132552616 -0.436941373605 0.891414530613 -0.438015260405 0.001968248489 -0.001284784448
0.048996799000 0.003158841529 -0.001644906239 0.889460054787 -0.442026125847 0.888989949392 -0.442825452859 0.001957862503 -0.001304635373
0.049596759000 0.003089338439 -0.001698228662 0.887062934389 -0.447101587659 0.886565690143 -0.447519194488 0.001951081781 -0.001396533828
0.050196719000 0.003145170207 -0.001764722714 0.884618006207 -0.451642485830 0.884182768929 -0.452683636168 0.002037901565 -0.001402208387
0.050796679000 0.003161558160 -0.001846314206 0.881955410098 -0.456422546617 0.881347503714 -0.457781160891 0.002058037071 -0.001522265259
0.051396639000 0.003195617221 -0.002050330773 0.879517483134 -0.461088112589 0.879106723833 -0.462442138864 0.002153352402 -0.001617063396
0.051996599000 0.003289292820 -0.001960652283 0.876618725240 -0.466548153201 0.876294985635 -0.467105327034 0.002115630960 -0.001714311841
0.052596559000 0.003319807315 -0.002146562996 0.874240134578 -0.470997393823 0.873616539169 -0.472167223796 0.002142074692 -0.001728666304
0.053196519000 0.003340031551 -0.002234342911 0.871332938826 -0.476009157570 0.870987376670 -0.476878820267 0.002194178391 -0.001850195341
0.053796479000 0.003255286069 -0.002146388929 0.868812416156 -0.480613932887 0.868158363079 -0.481830652295 0.002179353698 -0.001879596486
0.054396439000 0.003304882003 -0.002275241120 0.866058319670 -0.485353522430 0.865557158079 -0.486611831335 0.002212945061 -0.001985114587
0.054996399000 0.003327401729 -0.002393312238 0.862964680318 -0.490643711815 0.862532664523 -0.491478191700 0.002135394554 -0.001970512420
0.055596359000 0.003321684335 -0.002430900819 0.860516222221 -0.495246347205 0.859825790141 -0.496367569123 0.002146458620 -0.002063959940
0.056196319000 0.003361589704 -0.002519616297 0.857845723548 -0.499698903667 0.857141071944 -0.501103695647 0.002268316107 -0.002197415943
0.056796279000 0.003371661715 -0.002610619116 0.854867745348 -0.504619941677 0.854260426432 -0.505999927167 0.002227679723 -0.002172885390
0.057396239000 0.003338357099 -0.002716631561 0.851902962372 -0.509633344530 0.851269624261 -0.510601559778 0.002218339297 -0.002214900672
0.057996199000 0.003434544394 -0.002724449145 0.848854461622 -0.514555612657 0.848426222535 -0.515131969767 0.002196184883 -0.002364915918
0.058596159000 0.003327902688 -0.002865626408 0.846120974829 -0.519396864638 0.845466047486 -0.520152056553 0.002136841695 -0.002415976085
0.059196119000 0.003397297203 -0.003009132188 0.843293612959 -0.523857434378 0.842604687641 -0.524877635246 0.002176789217 -0.002472041458
0.059796079000 0.003343149898 -0.002951155390 0.840023600290 -0.528816275391 0.839357258906 -0.529683704555 0.002118463713 -0.002443727968
0.060396039000 0.003340286294 -0.003025314574 0.837313265203 -0.533375908489 0.836284559727 -0.534267035120 0.002213052552 -0.002641222675
0.060995999000 0.003348956999 -0.003096442305 0.834026188939 -0.538202460417 0.833191774302 -0.538769392212 0.002145457065 -0.002611633140
0.061595959000 0.003417517543 -0.003177195625 0.830755472353 -0.542641986142 0.830413813786 -0.543383455493 0.002152696517 -0.002639143994
0.062195919000 0.003348317750 -0.003241196335 0.828027274052 -0.547521883853 0.827172530219 -0.548462382152 0.002084329002 -0.002754915758
0.062795879000 0.003350084820 -0.003306673692 0.824934981647 -0.552106709125 0.824055805178 -0.553070012386 0.002116234587 -0.002760553178
0.063395839000 0.003373453996 -0.003461313310 0.822117332798 -0.556326104814 0.821052105533 -0.557407062657 0.002111529764 -0.002955344660
0.063995799000 0.003415224008 -0.003562926194 0.818651722381 -0.561277558347 0.818139933550 -0.561740351925 0.002124196135 -0.003070711144
0.064595759000 0.003308242639 -0.003576306450 0.815430689626 -0.565795148807 0.814892135094 -0.566353627413 0.002093768773 -0.003048492433
0.065195719000 0.003414340911 -0.003643513625 0.812416141078 -0.570361563751 0.811619499084 -0.570811549471 0.002110998742 -0.003106306953
0.065795679000 0.003220118148 -0.003743757808 0.808974007568 -0.575070822899 0.808238419435 -0.575861900035 0.002012032069 -0.003213222434
0.066395639000 0.003325376108 -0.003792781114 0.805819730895 -0.579387736885 0.805245863562 -0.579886075175 0.001992728912 -0.003292219539
0.066995599000 0.003291988994 -0.003929443046 0.802505617783 -0.584014195339 0.801941206397 -0.584334729469 0.002068864862 -0.003352881386
0.067595559000 0.003342929311 -0.004012173314 0.799178170812 -0.588571263576 0.798799130656 -0.588540909848 0.001937451228 -0.003377012140
0.068195519000 0.003282171347 -0.004030664423 0.795805483507 -0.592882961361 0.795274550525 -0.593113477545 0.001945453835 -0.003522207992
0.068795479000 0.003210255849 -0.004164712461 0.792375253209 -0.597364186087 0.791868384203 -0.597624486366 0.001999243059 -0.003558689518
0.069395439000 0.003172854110 -0.004226298528 0.788913773995 -0.602128506347 0.788282650479 -0.602310345957 0.001918604406 -0.003609617420
0.069995399000 0.003190856168 -0.004166895332 0.785483461160 -0.606192909525 0.784988990509 -0.606782316249 0.001784396228 -0.003609144955
0.070595359000 0.003157247718 -0.004300969548 0.781976996121 -0.610659334462 0.781563571275 -0.611270718959 0.001864314688 -0.003727387985
0.071195319000 0.003172694813 -0.004461581411 0.778749495007 -0.615121612363 0.778277298721 -0.615314981166 0.001788369664 -0.003852609928
0.071795279000 0.003178548078 -0.004458845311 0.775312673448 -0.619049808840 0.774471412232 -0.619865480424 0.001753341418 -0.003958277575
0.072395239000 0.003131725330 -0.004602795113 0.771856774984 -0.623408659932 0.771033180755 -0.624350093551 0.001713930632 -0.003939819886
0.072995199000 0.003127166295 -0.004724486686 0.768300971122 -0.627926641709 0.767708572269 -0.628235305713 0.001713715931 -0.004032979475
0.073595159000 0.003127373253 -0.004777249734 0.764841490655 -0.632139938374 0.763853409812 -0.632956765228 0.001635518203 -0.004127335284
0.074195119000 0.003164794676 -0.004733791025 0.761224373322 -0.636450025214 0.760314948975 -0.636968474041 0.001693523400 -0.004079178506
0.074795079000 0.003078044040 -0.004846241355 0.757776654798 -0.640590935837 0.756441410526 -0.641494860301 0.001595246938 -0.004237240951
0.075395039000 0.002895195710 -0.005033462500 0.753968140460 -0.644569551807 0.753393254244 -0.645405874550 0.001547831276 -0.004320517255
0.075994999000 0.002942330617 -0.005140817764 0.750449471151 -0.649147721235 0.749497412050 -0.649700793715 0.001576416441 -0.004408678904
0.076594959000 0.002894739072 -0.005207933624 0.746913986159 -0.652950673618 0.745857066129 -0.654009047723 0.001459084183 -0.004552801716
0.077194919000 0.002951259968 -0.005254597409 0.742858932707 -0.657645765016 0.742031426188 -0.658093059876 0.001364100015 -0.004498833451
0.077794879000 0.002835114631 -0.005215891892 0.739167411668 -0.661512493036 0.738444466499 -0.662313343005 0.001432953978 -0.004537467499
0.078394839000 0.002880531417 -0.005328736861 0.735502161857 -0.665565482161 0.734746270285 -0.666180842037 0.001373399697 -0.004541801506
0.078994799000 0.002790871149 -0.005511546402 0.731788808985 -0.669604448113 0.731116889283 -0.669976431243 0.001243863177 -0.004729084721
0.079594759000 0.002767762101 -0.005524248662 0.727792304652 -0.673859011042 0.727178816289 -0.674359225287 0.001224804627 -0.004777714685
0.080194719000 0.002720548607 -0.005716747424 0.724150394856 -0.677797471707 0.723407405758 -0.678441878678 0.001169287764 -0.004748576642
0.080794679000 0.002576811719 -0.005721926661 0.720365592309 -0.681704230454 0.719543990101 -0.682863838355 0.001146559528 -0.004944572130
0.081394639000 0.002641237527 -0.005729889474 0.716468758158 -0.685831573283 0.715542108662 -0.686601520922 0.001121318529 -0.004979659552
0.081994599000 0.002560111678 -0.005821737577 0.712738354834 -0.689755046076 0.711666893013 -0.690685068354 0.001037088639 -0.005025445130
0.082594559000 0.002551528489 -0.005986973564 0.709025316933 -0.693653020877 0.707567016534 -0.694610654731 0.000922777229 -0.005096886587
0.083194519000 0.002531825427 -0.006040222899 0.704788576507 -0.697668774547 0.703828489106 -0.698302904127 0.000935181507 -0.005236630513
0.083794479000 0.002367378817 -0.006096016058 0.700776270278 -0.701359470342 0.699927969123 -0.702511742943 0.000905561686 -0.005079725127
0.084394439000 0.002410403963 -0.006136771556 0.696814231354 -0.705531042272 0.696104843867 -0.706149634795 0.000770216759 -0.005182761385
0.084994399000 0.002367549783 -0.006255471229 0.692853621444 -0.709615562639 0.692259846282 -0.710077765192 0.000703624574 -0.005204864747
0.085594359000 0.002264785929 -0.006234722824 0.688931190773 -0.713133065582 0.688036441601 -0.714136294634 0.000729252384 -0.005380426956
0.086194319000 0.002160850324 -0.006317822553 0.684936459880 -0.716902429662 0.684221888654 -0.717719943611 0.000687628188 -0.005379541077
0.086794279000 0.002242529961 -0.006375697642 0.680719692705 -0.721040472073 0.679649378753 -0.721999353192 0.000636655148 -0.005418415023
