# GHZ S RI R 50.000000000000
0.001000000000 -0.000610506029 -0.002109402530 0.997824442451 -0.006381740565 0.997179606773 -0.013966388424 0.004868755598 -0.001109009164
0.001599959000 0.000854372285 -0.000336205365 0.999319268958 -0.010167856562 0.997010852510 -0.014198989734 0.003666280385 -0.000766023336
0.002199919000 0.001214327148 -0.000377258751 0.997470678719 -0.017817348210 0.995906584856 -0.017704276575 0.002645391500 -0.001253280041
0.002799879000 0.000492599122 -0.000707325890 0.996448887229 -0.023474154299 0.997174764048 -0.019666720533 0.001890126771 -0.000605845614
0.003399839000 0.000991548899 -0.000502030109 0.995812043629 -0.027360746611 0.996082805942 -0.027143633850 0.001637050515 -0.001100904054
0.003999799000 0.000831500826 -0.000620141093 0.995527464629 -0.031934828271 0.996000406200 -0.031634184845 0.001348113027 -0.000995787302
0.004599759000 0.000751174043 -0.000599629068 0.995572290773 -0.036672552561 0.995442957344 -0.036823718747 0.001310814978 -0.000842065942
0.005199719000 0.001102252917 -0.000596494057 0.994569361770 -0.041557683928 0.996329020117 -0.040768015894 0.001074919346 -0.000672346399
0.005799679000 0.000714824822 -0.000472869315 0.994678242928 -0.046251233528 0.994867089928 -0.046405431787 0.001105501618 -0.000906603562
0.006399639000 -0.000148442893 0.000144086565 0.993340677118 -0.049756329191 0.997265455637 -0.050913909432 0.001998407336 -0.000715305392
0.006999599000 0.000794273572 -0.000399507498 0.993857006646 -0.055312198547 0.994320550531 -0.055254371798 0.001098357505 -0.000628478276
0.007599559000 0.000714737423 -0.000498003192 0.993672845500 -0.059924138173 0.993656358722 -0.060076078561 0.001206880776 -0.000674207793
0.008199519000 0.000888145048 -0.000450650703 0.993341359013 -0.064426080421 0.993397449701 -0.064984988457 0.001138845021 -0.000717436077
0.008799479000 0.000919890929 -0.000440003936 0.993057617849 -0.069144971506 0.992955958702 -0.069811405648 0.001163154227 -0.000600240641
0.009399439000 0.000928149131 -0.000566699797 0.992444120308 -0.074191721282 0.992707706581 -0.074285149209 0.001164780892 -0.000664985288
0.009999399000 0.000977287310 -0.000539713674 0.992292607732 -0.078374763675 0.992055370064 -0.079126449610 0.001288470513 -0.000605304057
0.010599359000 0.001094591450 -0.000515034863 0.991423312218 -0.083023404771 0.991863026381 -0.083595538654 0.001199173604 -0.000554553899
0.011199319000 0.001098301655 -0.000545696007 0.991050792753 -0.087537873318 0.991324642411 -0.088553500940 0.001244782691 -0.000681952364
0.011799279000 0.001212089858 -0.000528495300 0.990611021157 -0.092376225797 0.990858679119 -0.092881829354 0.001230677589 -0.000715353324
0.012399239000 0.001143478096 -0.000787503825 0.990091066154 -0.097311431835 0.990196355248 -0.098176946738 0.001289870022 -0.000786492499
0.012999199000 0.001369556810 -0.000724818684 0.989602901305 -0.102161388874 0.989846978404 -0.102802477063 0.001362832368 -0.000858436532
0.013599159000 0.001404737016 -0.000785315401 0.989112697064 -0.106814961115 0.989092248923 -0.107285821939 0.001323349908 -0.000877197526
0.014199119000 0.001387278255 -0.000911235742 0.988376889832 -0.111433217768 0.988771951839 -0.112517402301 0.001428961834 -0.000938118969
0.014799079000 0.001404988973 -0.000958373792 0.987921761168 -0.116113553932 0.988053374761 -0.116997794575 0.001502163527 -0.000968214552
0.015399039000 0.001541138249 -0.000983432857 0.987281521946 -0.120734141122 0.987344071916 -0.121849446157 0.001369378737 -0.001086278859
0.015998999000 0.001526073165 -0.001154276840 0.986698894819 -0.125238636514 0.986643152787 -0.126327577531 0.001467093804 -0.001095519023
0.016598959000 0.001509148756 -0.001137716403 0.985872395495 -0.129796106052 0.985904229493 -0.131372264397 0.001498132452 -0.001223606135
0.017198919000 0.001595357786 -0.001188419006 0.985283577694 -0.134478707564 0.985338870033 -0.135515479683 0.001584734200 -0.001192125021
0.017798879000 0.001704401108 -0.001247318587 0.984786813356 -0.139339549925 0.984691454562 -0.140201126828 0.001577388573 -0.001316722506
0.018398839000 0.001703269439 -0.001375769325 0.983818836410 -0.144060609641 0.983876071772 -0.145013588216 0.001561492314 -0.001386828999
0.018998799000 0.001930949687 -0.001240451995 0.983174053007 -0.148360822034 0.983371043786 -0.149763971993 0.001621286605 -0.001412336617
0.019598759000 0.001753917150 -0.001436263044 0.982277828669 -0.153009850556 0.982497900971 -0.153994590932 0.001658570616 -0.001500688725
0.020198719000 0.001881874203 -0.001583305284 0.981537845256 -0.157725545736 0.981081983372 -0.158979256537 0.001635000071 -0.001621497804
0.020798679000 0.001885415218 -0.001654201837 0.980560945342 -0.162306357455 0.980686892599 -0.163641309504 0.001609560505 -0.001693724026
0.021398639000 0.001901531461 -0.001697554021 0.979713822198 -0.167019178750 0.979698843478 -0.168404227969 0.001509779302 -0.001821253673
0.021998599000 0.001911739818 -0.001790425684 0.979033176665 -0.171369140525 0.978728273972 -0.172470267741 0.001575976173 -0.001825570851
0.022598559000 0.001989451663 -0.001858987321 0.978000359037 -0.176315323474 0.977916319882 -0.177302170266 0.001649212922 -0.001937360137
0.023198519000 0.001953279904 -0.001935168111 0.977062402895 -0.180556538461 0.977028328655 -0.182046501952 0.001628007800 -0.001993416118
0.023798479000 0.002048676851 -0.002068378472 0.976254128119 -0.185488397081 0.976356661736 -0.186230606457 0.001727965623 -0.002069489740
0.024398439000 0.002061374327 -0.002158212238 0.975295406730 -0.190057947637 0.975166443593 -0.191498558257 0.001694469240 -0.002188534007
0.024998399000 0.002057937717 -0.002208840820 0.974405239381 -0.194726850065 0.974321034793 -0.195790670394 0.001788027269 -0.002294671506
0.025598359000 0.002068820633 -0.002384455753 0.973368483598 -0.199346310398 0.973520076805 -0.200529259944 0.001720991190 -0.002428180603
0.026198319000 0.002093295264 -0.002495670254 0.972345159662 -0.203688315223 0.972329531784 -0.205428311629 0.001674187255 -0.002538085326
0.026798279000 0.002133251173 -0.002604667163 0.971361769987 -0.208482315889 0.971291961116 -0.209928094227 0.001699512289 -0.002577617028
0.027398239000 0.002219977519 -0.002620092337 0.970177178211 -0.213321749386 0.970164185055 -0.214264892414 0.001609128407 -0.002685828169
0.027998199000 0.002151066522 -0.002755371466 0.969160374538 -0.217803242558 0.969095561664 -0.219249275975 0.001631713539 -0.002776374453
0.028598159000 0.002216084288 -0.002831163124 0.968201277940 -0.222351980165 0.967980586139 -0.223617867203 0.001667745739 -0.002841787695
0.029198119000 0.002144890561 -0.002924674416 0.967021932246 -0.226923662797 0.966963775897 -0.228183089315 0.001643492427 -0.002971361370
0.029798079000 0.002200265333 -0.003090338278 0.965952301323 -0.231678617557 0.965754265013 -0.232479403229 0.001632708263 -0.003107081304
0.030398039000 0.002291093192 -0.003060219933 0.964774313312 -0.235975886485 0.964709657833 -0.236930494996 0.001712368967 -0.003124148604
0.030997999000 0.002238897879 -0.003240550809 0.963487366596 -0.240570061996 0.963459317362 -0.241912598369 0.001693915757 -0.003296355181
0.031597959000 0.002291948427 -0.003353965046 0.962442224924 -0.245274959048 0.962390553315 -0.245989463735 0.001714613276 -0.003359949211
0.032197919000 0.002351004957 -0.003489421384 0.960918404088 -0.250059532859 0.961175583912 -0.250480673521 0.001712910950 -0.003462977993
0.032797879000 0.002223252849 -0.003577822476 0.959917636280 -0.254168162926 0.959682311765 -0.255371371999 0.001728856579 -0.003629111042
0.033397839000 0.002341060352 -0.003785228877 0.958651777150 -0.258907016100 0.958502155380 -0.259883880691 0.001593710458 -0.003686452748
0.033997799000 0.002343359521 -0.003772079734 0.957331069637 -0.263382334941 0.957150279461 -0.264643982834 0.001603906219 -0.003844349288
0.034597759000 0.002285659301 -0.003899759038 0.956142072812 -0.267838800417 0.956017972221 -0.268895861672 0.001665965357 -0.003992569293
0.035197719000 0.002238089599 -0.004047452908 0.954900091123 -0.272541576051 0.954982271880 -0.273418116003 0.001639513421 -0.004076154983
0.035797679000 0.002226498127 -0.004122424541 0.953575630505 -0.277296609519 0.953405526577 -0.278101109528 0.001565534232 -0.004143409900
0.036397639000 0.002217370884 -0.004292649033 0.952097040015 -0.281620128786 0.952088740130 -0.282884441652 0.001506405790 -0.004245812827
0.036997599000 0.002278665723 -0.004278899751 0.950870332743 -0.286296810931 0.950481340343 -0.287252508059 0.001529534325 -0.004465712025
0.037597559000 0.002239337698 -0.004437060726 0.949516124101 -0.290230372889 0.949289006919 -0.291720672199 0.001596641305 -0.004554092941
0.038197519000 0.002138775102 -0.004583767720 0.948097822252 -0.295009850436 0.947911678590 -0.296052431442 0.001519079017 -0.004610995755
0.038797479000 0.002084710655 -0.004706821420 0.946668436315 -0.299500490469 0.946384066056 -0.300804250576 0.001539060415 -0.004769529118
0.039397439000 0.002131061841 -0.004773438919 0.945020032256 -0.304086270715 0.944815833916 -0.305549679604 0.001449089328 -0.004882639561
0.039997399000 0.002152558480 -0.005016446686 0.943572333039 -0.308580637502 0.943149518279 -0.309853699476 0.001436391849 -0.004972982450
0.040597359000 0.002227671738 -0.005054534201 0.941937707928 -0.313143057874 0.942001602954 -0.313829954593 0.001540662653 -0.005100120847
0.041197319000 0.002260711984 -0.005165973678 0.940767209798 -0.317230219002 0.940439476053 -0.318355714471 0.001511272265 -0.005259950670
0.041797279000 0.002241065851 -0.005236154555 0.939176460767 -0.321893867554 0.938866778813 -0.322941485028 0.001420994374 -0.005325137322
0.042397239000 0.002172189687 -0.005324949257 0.937651035314 -0.326018969736 0.937459944595 -0.327176247356 0.001528629344 -0.005448261992
0.042997199000 0.002129157257 -0.005539488368 0.935960545522 -0.330921861610 0.935609396032 -0.331971578711 0.001443408802 -0.005569084780
0.043597159000 0.002129647525 -0.005588538550 0.934157425236 -0.335428738296 0.934063046117 -0.336002703806 0.001409524249 -0.005720336982
0.044197119000 0.002080428722 -0.005697239192 0.932406712238 -0.339846839463 0.932431599750 -0.340406031515 0.001304423266 -0.005741102044
0.044797079000 0.002066547364 -0.005851744324 0.931025223043 -0.344280749096 0.930668405833 -0.345007969830 0.001273013561 -0.005876108907
0.045397039000 0.002071852019 -0.005874382313 0.929405100206 -0.348596877036 0.928865362384 -0.349414514428 0.001367873537 -0.006048327089
0.045996999000 0.002001311031 -0.006014878265 0.927637769403 -0.353191891147 0.927253723763 -0.353985948884 0.001289523213 -0.006197419516
0.046596959000 0.002064958573 -0.006176678695 0.926033650192 -0.357304571966 0.925689715717 -0.357942969546 0.001324902091 -0.006290388887
0.047196919000 0.002000361395 -0.006284661936 0.924256423963 -0.361800558947 0.923884978971 -0.362677031932 0.001215299343 -0.006345293539
0.047796879000 0.001875531601 -0.006406926552 0.922601690818 -0.366108567722 0.922155262258 -0.367187901006 0.001155062116 -0.006516381660
0.048396839000 0.001941549063 -0.006562537514 0.920872010704 -0.370547178335 0.920431334978 -0.371488069788 0.001179407281 -0.006665406879
0.048996799000 0.001925879644 -0.006649153779 0.918977711979 -0.374851461215 0.918569951851 -0.375794482038 0.001083291735 -0.006732782445
0.049596759000 0.001866741052 -0.006809513258 0.916953093343 -0.379536561323 0.916831531915 -0.379770481151 0.001097720502 -0.006856902467
0.050196719000 0.001827313159 -0.006884308606 0.915408520287 -0.383352611894 0.915077698390 -0.384045474016 0.001096612896 -0.006961912718
0.050796679000 0.001741473397 -0.006930388472 0.913418515526 -0.387548052887 0.913089166306 -0.388691363790 0.001037840227 -0.007017131060
0.051396639000 0.001815066477 -0.007173213683 0.911638635186 -0.391681078925 0.911599331203 -0.392568458830 0.001118580870 -0.007248386343
0.051996599000 0.001797822291 -0.007198365239 0.909634422868 -0.396269830671 0.909379407016 -0.397001496520 0.001013814814 -0.007351130930
0.052596559000 0.001783962871 -0.007423171846 0.907913877551 -0.400055089329 0.907550914157 -0.401200523340 0.001105782639 -0.007469418471
0.053196519000 0.001689448327 -0.007504820148 0.905711194982 -0.404640090755 0.905598748496 -0.405749110485 0.000959480756 -0.007593282100
0.053796479000 0.001591202777 -0.007604413696 0.904012300919 -0.408867156434 0.903647036932 -0.409977020673 0.000975580646 -0.007733663893
0.054396439000 0.001587170667 -0.007666423257 0.901970899981 -0.413008128871 0.901734272888 -0.413827589560 0.000907992229 -0.007807646943
0.054996399000 0.001532348801 -0.007883873492 0.899649298228 -0.417767248175 0.899513237494 -0.418561207028 0.000837059343 -0.007960467203
0.055596359000 0.001495806536 -0.007934667839 0.898143490213 -0.421506525447 0.897749576765 -0.422588040984 0.000783612616 -0.008077314005
0.056196319000 0.001472838727 -0.008079046508 0.896043976665 -0.425585688799 0.895673070533 -0.426528986004 0.000867126897 -0.008222349606
0.056796279000 0.001367258590 -0.008172340158 0.894034208084 -0.429681389350 0.893742588528 -0.430497914793 0.000851786550 -0.008285713050
0.057396239000 0.001344483329 -0.008351079524 0.891961635241 -0.433864350882 0.891542322086 -0.434687644917 0.000821013582 -0.008403074956
0.057996199000 0.001359604491 -0.008387458395 0.889749078375 -0.438159941080 0.889638700509 -0.438690090492 0.000703553852 -0.008615790871
0.058596159000 0.001293191661 -0.008591227204 0.887799169060 -0.442386628343 0.887459075707 -0.443075155684 0.000633783628 -0.008755312868
0.059196119000 0.001297436058 -0.008719532042 0.885733110778 -0.446344331257 0.885292432024 -0.447421678350 0.000632294044 -0.008814458706
0.059796079000 0.001152869170 -0.008697118430 0.883277684941 -0.450836070818 0.882914174295 -0.451604362976 0.000521783978 -0.008836234157
0.060396039000 0.001124066537 -0.008911622132 0.881205529028 -0.454964797505 0.880662545558 -0.455754256500 0.000529491769 -0.009032364432
0.060995999000 0.001126488165 -0.009024808307 0.879018939000 -0.459042109281 0.878667621531 -0.459403928762 0.000462200944 -0.009139168257
0.061595959000 0.001066260237 -0.009079685047 0.876639752847 -0.463072794702 0.876584920429 -0.463552039415 0.000426626582 -0.009193402524
0.062195919000 0.001023680817 -0.009244371489 0.874633661355 -0.467144848438 0.874022998841 -0.467992044214 0.000285278467 -0.009350314727
0.062795879000 0.000976479574 -0.009313927478 0.872375819319 -0.471391434614 0.871953336695 -0.472041767620 0.000289500329 -0.009438152339
0.063395839000 0.000825304808 -0.009466570728 0.870314174757 -0.475268069530 0.869753445533 -0.475961149907 0.000201918279 -0.009671241574
0.063995799000 0.000847621562 -0.009595686319 0.867892337592 -0.479628466916 0.867595373039 -0.479978422658 0.000150909307 -0.009816730287
0.064595759000 0.000745466844 -0.009734787274 0.865559739600 -0.483678735407 0.865563667543 -0.483721041724 0.000120892002 -0.009881352066
0.065195719000 0.000720263175 -0.009818645669 0.863441829249 -0.487579126770 0.863224641087 -0.487826164189 0.000013061905 -0.009955856401
0.065795679000 0.000528578400 -0.009940223768 0.860934297535 -0.491723393007 0.860822942166 -0.492339908770 -0.000036180562 -0.010187526057
0.066395639000 0.000524973866 -0.010061725840 0.858766030876 -0.495682498836 0.858325969644 -0.496436364150 -0.000141045487 -0.010299370953
0.066995599000 0.000453740329 -0.010185886839 0.856368331937 -0.499817579205 0.856008567867 -0.500352027866 -0.000147884793 -0.010358834359
0.067595559000 0.000438702248 -0.010380853860 0.853737785055 -0.504104740230 0.853605687040 -0.504083513437 -0.000308587168 -0.010484323044
0.068195519000 0.000331719906 -0.010363348779 0.851424890958 -0.507754532705 0.851149962216 -0.508207532283 -0.000325752326 -0.010602084884
0.068795479000 0.000250167117 -0.010551341354 0.849265719937 -0.511555715238 0.848656849925 -0.512211671140 -0.000380606385 -0.010695029076
0.069395439000 0.000150030351 -0.010677089592 0.846748538588 -0.515521276309 0.846230255159 -0.516217561851 -0.000447472101 -0.010829287996
0.069995399000 0.000076838613 -0.010747688821 0.844112122982 -0.519613365555 0.844063087266 -0.520121312904 -0.000645597634 -0.010927568317
0.070595359000 -0.000013812891 -0.010841991398 0.841584921339 -0.523792803112 0.841258899284 -0.524335440409 -0.000644600091 -0.010983241352
0.071195319000 -0.000049727989 -0.011060038811 0.839291377946 -0.527612520465 0.839055040868 -0.527882497696 -0.000718820946 -0.011177837825
0.071795279000 -0.000128207538 -0.011145767906 0.836648592299 -0.531313657090 0.836489703655 -0.531653149650 -0.000837524509 -0.011266986726
0.072395239000 -0.000229795748 -0.011240461016 0.834141336371 -0.535188099825 0.833833775587 -0.536128218751 -0.000886278171 -0.011410936431
0.072995199000 -0.000311428737 -0.011320525710 0.831794325158 -0.539214426653 0.831276788107 -0.539744658546 -0.000977847193 -0.011485159089
0.073595159000 -0.000416515408 -0.011466029960 0.829094801665 -0.543317235164 0.828608120401 -0.543855494352 -0.001105995917 -0.011582882462
0.074195119000 -0.000393404415 -0.011471170494 0.826721251661 -0.546875528321 0.825989048127 -0.547830059417 -0.001172205377 -0.011660153426
0.074795079000 -0.000546461636 -0.011651703233 0.823937185746 -0.550854514189 0.823132183224 -0.551606931202 -0.001241652566 -0.011784010176
0.075395039000 -0.000679747109 -0.011862247398 0.821498697941 -0.554341995546 0.821007684884 -0.555068107516 -0.001365313315 -0.011951357160
0.075994999000 -0.000685761122 -0.011963899782 0.818738415238 -0.558314373071 0.818161975736 -0.559131083756 -0.001405188840 -0.012080622597
0.076594959000 -0.000836465048 -0.012020727267 0.816010389879 -0.562098438256 0.815537353119 -0.562936465455 -0.001537965432 -0.012185325727
0.077194919000 -0.000834101944 -0.012156801887 0.813376838248 -0.566162702113 0.812925869439 -0.566407205935 -0.001657096715 -0.012294122413
0.077794879000 -0.001094533241 -0.012152169704 0.810523219376 -0.569858174203 0.810257273818 -0.570617492633 -0.001724953545 -0.012359522441
0.078394839000 -0.001009600607 -0.012285040167 0.807979953781 -0.573596502211 0.807528003800 -0.573829045370 -0.001838215679 -0.012441288147
0.078994799000 -0.001206582821 -0.012503411909 0.805362396414 -0.577223686731 0.804863394695 -0.577763195707 -0.001973029769 -0.012637015659
0.079594759000 -0.001212578933 -0.012589433552 0.802454839093 -0.581214822066 0.802162172661 -0.581375820790 -0.002038709206 -0.012723710804
0.080194719000 -0.001320306825 -0.012709269454 0.799809772293 -0.584825197199 0.799199431298 -0.585330478726 -0.002147949996 -0.012737953866
0.080794679000 -0.001488769842 -0.012823966736 0.797063882655 -0.588448441108 0.796656906618 -0.589300508990 -0.002262509944 -0.012957452880
0.081394639000 -0.001581269167 -0.012859704992 0.794238324914 -0.592189569201 0.793674205316 -0.592872036686 -0.002321373613 -0.013040680068
0.081994599000 -0.001712222277 -0.012976477009 0.791346559421 -0.596152676624 0.790848096815 -0.596686163460 -0.002449103599 -0.013159391117
0.082594559000 -0.001811541282 -0.013177278221 0.788573334780 -0.599797342432 0.788160370064 -0.600231556295 -0.002596624911 -0.013235845198
0.083194519000 -0.001874660566 -0.013305590773 0.785542026624 -0.603590787841 0.785314000692 -0.603864152441 -0.002649156061 -0.013388178487
0.083794479000 -0.002046324032 -0.013308440174 0.782710662375 -0.607247180807 0.782334533010 -0.607760244584 -0.002801262836 -0.013349663408
0.084394439000 -0.002138174810 -0.013323648792 0.779734466710 -0.611092009604 0.779370758268 -0.611551926383 -0.002911361339 -0.013440336610
0.084994399000 -0.002180403770 -0.013476257117 0.776901333781 -0.614820169178 0.776619298431 -0.615116189598 -0.003097089657 -0.013574334731
0.085594359000 -0.002331331647 -0.013596450018 0.774031428050 -0.618174163444 0.773574935892 -0.618823082289 -0.003121756443 -0.013755279260
0.086194319000 -0.002471160330 -0.013661297913 0.771371176014 -0.621625695571 0.770766066125 -0.622222623834 -0.003294818772 -0.013847489580
