# GHZ S RI R 50.000000000000
0.001000000000 -0.991798298629 0.004125389310 0.000415543882 -0.000411768372 -0.000006716031 -0.000764105763 -0.990019992020 0.000428272332
0.001599959000 -0.992017093832 0.005018599756 0.000366153238 -0.000270767070 0.000145160821 -0.000407644267 -0.994241783593 0.000834446981
0.002199919000 -0.991552579169 0.005506828136 0.000351871550 -0.000189857846 0.000099039102 -0.000285490803 -0.993462119761 0.003511487708
0.002799879000 -0.991821857576 0.005069802496 0.000264783008 -0.000098165110 0.000121648768 -0.000202175680 -0.991180589278 0.006050693477
0.003399839000 -0.991260454590 0.008186468057 0.000296245427 -0.000027762372 0.000181379813 -0.000101057984 -0.993307394039 0.004077271499
0.003999799000 -0.990772940143 0.009601664315 0.000205076456 -0.000065088077 0.000153333085 -0.000086507772 -0.993523914581 0.004994418146
0.004599759000 -0.990802092953 0.011126897072 0.000169126260 -0.000011880059 0.000145691437 -0.000068841988 -0.993244197902 0.005610812885
0.005199719000 -0.990343903565 0.012364555761 0.000167534097 0.000026636231 0.000133954445 -0.000057329271 -0.993183139020 0.006570751799
0.005799679000 -0.990672317715 0.013973377295 0.000138706153 0.000029523513 0.000093664189 0.000001188070 -0.993180545281 0.007117437469
0.006399639000 -0.989865137962 0.015643335460 0.000012871981 -0.000855976411 -0.000238097811 0.001101929476 -0.994211732446 0.006744214506
0.006999599000 -0.990337412706 0.016835467486 0.000123127071 0.000106862563 0.000092214299 0.000009870304 -0.992947436009 0.008270660534
0.007599559000 -0.990447877062 0.018798792752 0.000085714146 0.000057576014 0.000101905383 0.000087812717 -0.992872137630 0.009689836939
0.008199519000 -0.990114695052 0.019812237232 0.000103441270 0.000101359490 0.000084407073 0.000042757060 -0.992889550298 0.010307609650
0.008799479000 -0.989881916100 0.021180912999 0.000146847119 0.000101461551 0.000066043217 0.000091211883 -0.992701673185 0.011285933707
0.009399439000 -0.989913959227 0.022649409350 0.000144612432 0.000070294086 0.000062641516 0.000075848414 -0.992544321027 0.011799252984
0.009999399000 -0.988822489484 0.023625894046 0.000121596398 0.000056567212 0.000045107256 0.000140728363 -0.992773433500 0.012739051885
0.010599359000 -0.989527134493 0.025633034665 0.000115113439 0.000052481367 0.000055008916 0.000129811000 -0.992523450799 0.013721188972
0.011199319000 -0.989398117709 0.026965135327 0.000103669755 0.000107110894 0.000038932465 0.000126698506 -0.992274726722 0.014066584895
0.011799279000 -0.989137652953 0.028583996530 0.000057589815 0.000096899079 0.000027833053 0.000129133726 -0.992339022528 0.014959192228
0.012399239000 -0.989131682294 0.029913559777 0.000054514690 0.000074100381 0.000086274292 0.000146245956 -0.992150144002 0.015780233703
0.012999199000 -0.988851287966 0.031594748877 0.000091408095 0.000099939451 0.000098413852 0.000122709144 -0.992078136410 0.016407861979
0.013599159000 -0.988763861129 0.033335075573 0.000015329762 0.000126651985 0.000043623092 0.000101431896 -0.992123909394 0.016997862844
0.014199119000 -0.988569155886 0.034466820907 0.000050161186 0.000119770364 0.000026429610 0.000107010229 -0.991856339381 0.018220255659
0.014799079000 -0.988147375849 0.035574455944 0.000071804368 0.000160066335 0.000051075304 0.000102146721 -0.991500678072 0.019240248502
0.015399039000 -0.987970532156 0.037028801858 0.000092293720 0.000171444252 0.000022210384 0.000081122345 -0.991731560145 0.019630376956
0.015998999000 -0.987885032338 0.038403440693 0.000107109671 0.000132874705 0.000021436987 0.000067857805 -0.991704178056 0.020637593857
0.016598959000 -0.987568510283 0.039719917023 0.000021461551 0.000156809139 0.000072020108 0.000159644034 -0.991420249882 0.021002823515
0.017198919000 -0.987391117545 0.040830991501 0.000044334154 0.000198822968 0.000069538845 0.000129354995 -0.991324300603 0.021714545109
0.017798879000 -0.987144037460 0.042291765523 0.000054114806 0.000179752625 0.000059821050 0.000106499084 -0.991279502610 0.022335159761
0.018398839000 -0.987036510671 0.043921931903 0.000010869496 0.000160302189 0.000040563199 0.000127859969 -0.991145643083 0.023156356578
0.018998799000 -0.986659634159 0.045318643023 0.000050049008 0.000166441729 -0.000008494528 0.000057965001 -0.990971973374 0.024012573621
0.019598759000 -0.986613123449 0.046306313185 0.000049075220 0.000172676637 0.000033452922 0.000149996797 -0.990791709750 0.024700285200
0.020198719000 -0.986411460502 0.047782713066 0.000053751737 0.000230390718 0.000032497417 0.000092973633 -0.990794874465 0.025433856047
0.020798679000 -0.986099723496 0.048888906361 0.000075929986 0.000199871213 0.000063268118 0.000122547499 -0.990666877609 0.026301055865
0.021398639000 -0.985881021239 0.050337108456 0.000078007053 0.000184750566 0.000078456307 0.000145680724 -0.990658090147 0.026835212095
0.021998599000 -0.985692458134 0.051868445802 0.000035867672 0.000222499568 0.000096243427 0.000140539835 -0.990485118034 0.027924670119
0.022598559000 -0.985746880677 0.053357806368 0.000054805051 0.000244456436 0.000089881493 0.000121335562 -0.990304098740 0.028775909320
0.023198519000 -0.985376229109 0.055042589332 0.000061614630 0.000189072739 0.000078213368 0.000129093318 -0.990159230181 0.029361739917
0.023798479000 -0.985242211870 0.055824055376 0.000058326614 0.000225054838 0.000059082593 0.000202932615 -0.990195127062 0.029951912267
0.024398439000 -0.985123631128 0.057555472252 0.000025086326 0.000241864301 0.000067303034 0.000130608529 -0.990113689355 0.031079643521
0.024998399000 -0.984779429537 0.058918634236 0.000089306446 0.000225740924 0.000081421490 0.000190277515 -0.990050197365 0.031542417991
0.025598359000 -0.985038573530 0.060785614558 0.000044725027 0.000187618104 0.000081416163 0.000207882526 -0.990003201428 0.032885862230
0.026198319000 -0.984763220933 0.062281448958 0.000056995403 0.000228948425 0.000111244642 0.000199672163 -0.989947254206 0.033472004577
0.026798279000 -0.984362362329 0.063458039251 0.000078912356 0.000207476384 0.000050350715 0.000187338005 -0.989911599801 0.034269325867
0.027398239000 -0.983951078698 0.064662566778 0.000032349338 0.000227775577 0.000063576999 0.000186826097 -0.989897034937 0.034893327777
0.027998199000 -0.984066913689 0.066100721706 0.000088027018 0.000220040425 0.000048326911 0.000195090840 -0.989572640227 0.035742903465
0.028598159000 -0.983633475152 0.067660448520 0.000060384042 0.000241287613 0.000045793501 0.000189850595 -0.989395225320 0.036089159637
0.029198119000 -0.983532259792 0.068612859393 0.000078254223 0.000275956420 0.000042702134 0.000179331001 -0.989454523667 0.037239882512
0.029798079000 -0.983233429917 0.069918049927 0.000051057048 0.000201796333 0.000043984548 0.000175759685 -0.989425050614 0.037907047833
0.030398039000 -0.983123984185 0.071104548683 0.000060526078 0.000179426516 0.000055116998 0.000214604209 -0.989252862582 0.038504675897
0.030997999000 -0.982794606982 0.072137927171 0.000095005271 0.000227661787 0.000034330162 0.000186868299 -0.989311639455 0.039114887169
0.031597959000 -0.982451448128 0.073536014292 0.000049915314 0.000250865000 0.000079104774 0.000189630909 -0.989022227486 0.040013405062
0.032197919000 -0.982475491682 0.074795956863 0.000095403909 0.000286742027 0.000070397307 0.000219799024 -0.988970141369 0.040849573865
0.032797879000 -0.982316273148 0.076050708898 0.000103687583 0.000266617793 0.000068244792 0.000240203060 -0.989002460005 0.041602050977
0.033397839000 -0.982205556289 0.077561501183 0.000063236075 0.000275608425 0.000095566394 0.000242267102 -0.988873757460 0.042241966877
0.033997799000 -0.981987111365 0.078550773588 0.000085393521 0.000320425878 0.000107339962 0.000270535569 -0.988873065182 0.043051137073
0.034597759000 -0.981908910381 0.080095304749 0.000078972097 0.000264829156 0.000093932337 0.000255740909 -0.988689200203 0.043450084721
0.035197719000 -0.981813246308 0.081489793002 0.000077917062 0.000267988307 0.000098836090 0.000258815371 -0.988578886445 0.044196643346
0.035797679000 -0.981492866232 0.082728458728 0.000072584553 0.000257294505 0.000106766632 0.000283178621 -0.988452593369 0.045019090415
0.036397639000 -0.981245735019 0.084035023439 0.000092142854 0.000304418256 0.000101538144 0.000278830719 -0.988551758836 0.045695749052
0.036997599000 -0.981043941040 0.085404810165 0.000084859406 0.000288210028 0.000064437609 0.000294158615 -0.988247969511 0.046353882776
0.037597559000 -0.981010548933 0.086948152193 0.000089846461 0.000278842836 0.000085806771 0.000330514903 -0.988208297665 0.047047634914
0.038197519000 -0.980855306532 0.088368051568 0.000116192831 0.000287225341 0.000069993509 0.000275502968 -0.988025772343 0.047671735209
0.038797479000 -0.980432163025 0.089775689664 0.000102890021 0.000318628701 0.000091099987 0.000308185278 -0.988135511559 0.048215193529
0.039397439000 -0.980245669597 0.090725393378 0.000082118709 0.000292796224 0.000067016707 0.000302951134 -0.987839535606 0.048996167495
0.039997399000 -0.980244533275 0.092177226020 0.000112246070 0.000325251660 0.000086205432 0.000313951088 -0.987920606138 0.049794221556
0.040597359000 -0.979939538846 0.093516856347 0.000093334550 0.000300908341 0.000090899969 0.000331770972 -0.987804039529 0.050609921741
0.041197319000 -0.979759692116 0.094851437582 0.000095652722 0.000289751636 0.000110205384 0.000289154876 -0.987900761868 0.051128524174
0.041797279000 -0.979486029669 0.095889042240 0.000124243866 0.000347307510 0.000090386527 0.000292474120 -0.987668379945 0.051629689715
0.042397239000 -0.979269141298 0.097583736664 0.000153328995 0.000316233345 0.000102014572 0.000323143944 -0.987624384110 0.052730512952
0.042997199000 -0.979190319753 0.098868308255 0.000068013162 0.000263371990 0.000086746201 0.000291264212 -0.987648017438 0.053531957653
0.043597159000 -0.978833287541 0.100136259397 0.000064836561 0.000293539943 0.000145253753 0.000311407732 -0.987394096157 0.054314980052
0.044197119000 -0.978702429401 0.101456681422 0.000126295171 0.000334171557 0.000140929338 0.000359335030 -0.987330826507 0.054854046907
0.044797079000 -0.978532245702 0.102926681792 0.000116189884 0.000358863042 0.000107580038 0.000339139890 -0.987210193357 0.055468089399
0.045397039000 -0.978323105666 0.103890681450 0.000118457824 0.000377472019 0.000118548945 0.000376051834 -0.987055980434 0.056363401641
0.045996999000 -0.978071416974 0.105574910327 0.000102441106 0.000335883363 0.000121541260 0.000292042906 -0.987169019556 0.056837275776
0.046596959000 -0.977938778137 0.106844685351 0.000092809260 0.000344225133 0.000114673558 0.000333419576 -0.987028969028 0.057817085934
0.047196919000 -0.977708676140 0.107879799267 0.000128840297 0.000345125086 0.000145209636 0.000350082433 -0.986928767973 0.058515187263
0.047796879000 -0.977336297311 0.109187742633 0.000119274753 0.000347408622 0.000160124318 0.000384431657 -0.986898392455 0.059126662669
0.048396839000 -0.977144211740 0.110824316767 0.000098521946 0.000354845858 0.000108823628 0.000355336585 -0.986610694857 0.059859350596
0.048996799000 -0.976913189305 0.111851959547 0.000145287667 0.000367982656 0.000151217936 0.000389065851 -0.986550711267 0.060444759764
0.049596759000 -0.976748377781 0.113657348932 0.000145318765 0.000374229638 0.000137093341 0.000344033703 -0.986489717331 0.061147809454
0.050196719000 -0.976510110496 0.114474452876 0.000135173071 0.000364376571 0.000146600620 0.000403051961 -0.986339799997 0.062072404250
0.050796679000 -0.976194659058 0.115965975258 0.000132115210 0.000371525538 0.000135150248 0.000424306402 -0.986217877417 0.062348967370
0.051396639000 -0.975891027905 0.117461057871 0.000133608298 0.000392426927 0.000151557641 0.000392992944 -0.986164097508 0.062992000210
0.051996599000 -0.975754923504 0.118639669398 0.000157030084 0.000388169791 0.000113424644 0.000366676591 -0.986173364966 0.063776016760
0.052596559000 -0.975531637614 0.119983685399 0.000144741742 0.000439031851 0.000152234444 0.000363127360 -0.985960165638 0.064577806299
0.053196519000 -0.975182645620 0.121390080294 0.000115366932 0.000396705959 0.000128100481 0.000388556656 -0.985825946760 0.065390425735
0.053796479000 -0.974993970885 0.122527911939 0.000130854292 0.000369716057 0.000125928936 0.000363272602 -0.985838148090 0.066064318859
0.054396439000 -0.974736513238 0.123475301288 0.000114852464 0.000381365137 0.000120214795 0.000381090377 -0.985617766332 0.066507147219
0.054996399000 -0.974444585856 0.125240223492 0.000139405093 0.000436686299 0.000164324512 0.000414456660 -0.985633012678 0.067488771888
0.055596359000 -0.974145310748 0.126202682610 0.000176986947 0.000420760353 0.000179722682 0.000409688591 -0.985437018074 0.068104086841
0.056196319000 -0.973988658009 0.127565127489 0.000140246017 0.000425282169 0.000126672793 0.000410223383 -0.985293403514 0.069069109759
0.056796279000 -0.973672305191 0.128784130413 0.000137761449 0.000486239763 0.000145769120 0.000462963772 -0.985247540121 0.069551782854
0.057396239000 -0.973536837535 0.130154149787 0.000141036526 0.000396412475 0.000141195594 0.000444087560 -0.985227211501 0.070578986505
0.057996199000 -0.973183134964 0.131433736050 0.000130826683 0.000405573623 0.000130534501 0.000462432459 -0.985041352203 0.071372124687
0.058596159000 -0.972867426578 0.132874972370 0.000199735862 0.000425374796 0.000202875358 0.000393175138 -0.984914927481 0.071825306582
0.059196119000 -0.972734914346 0.134008062824 0.000139855097 0.000426293987 0.000148848013 0.000421235120 -0.984886535611 0.072521072859
0.059796079000 -0.972435426814 0.134899945078 0.000122356199 0.000439806292 0.000166051902 0.000440304331 -0.984770631373 0.073341659424
0.060396039000 -0.972043541071 0.136204722266 0.000137238532 0.000387394476 0.000125299836 0.000382536420 -0.984698608131 0.073921848261
0.060995999000 -0.972013354471 0.137730380653 0.000123291687 0.000408012466 0.000118303883 0.000352392545 -0.984569800380 0.074517429648
0.061595959000 -0.971641339882 0.139054368574 0.000106698139 0.000336640471 0.000147372455 0.000372047389 -0.984458252503 0.075414630259
0.062195919000 -0.971448434110 0.140030696758 0.000097003495 0.000419819434 0.000133025504 0.000350009258 -0.984406689868 0.075788393513
0.062795879000 -0.971378107832 0.141473057823 0.000164899117 0.000461323087 0.000141285600 0.000419822349 -0.984302240509 0.076470388100
0.063395839000 -0.971109277599 0.142906958395 0.000169696380 0.000487129811 0.000179016254 0.000469810984 -0.984279802317 0.077052097130
0.063995799000 -0.970875347315 0.143892452843 0.000190013974 0.000477188823 0.000217862861 0.000452874512 -0.984260282359 0.077492416891
0.064595759000 -0.970681800559 0.145376384473 0.000164489411 0.000438755983 0.000154806284 0.000499402998 -0.984032658943 0.078354808011
0.065195719000 -0.970269289147 0.146547667229 0.000146780721 0.000480664669 0.000224240342 0.000475691163 -0.983757847399 0.079195960496
0.065795679000 -0.969950123105 0.148060585647 0.000117800836 0.000507442090 0.000197634594 0.000454636383 -0.983824962518 0.079747739967
0.066395639000 -0.969725513489 0.149264728959 0.000142482881 0.000502529755 0.000193477900 0.000510088063 -0.983758215595 0.080308104697
0.066995599000 -0.969335125773 0.150684374387 0.000215861329 0.000483290474 0.000164880680 0.000476126658 -0.983543502328 0.081148096427
0.067595559000 -0.969086286519 0.151279801978 0.000166259762 0.000485746000 0.000164068873 0.000522222539 -0.983528741190 0.082115595501
0.068195519000 -0.968881174459 0.153016097451 0.000173128017 0.000504961649 0.000145786960 0.000441715437 -0.983427491253 0.082803429227
0.068795479000 -0.968677391471 0.154300202927 0.000185359944 0.000476999025 0.000176640014 0.000503590410 -0.983390273843 0.083345137702
0.069395439000 -0.968406962056 0.155208364351 0.000174287226 0.000511341901 0.000170778278 0.000505501991 -0.983120340875 0.083922814567
0.069995399000 -0.968004813668 0.156580904896 0.000205666934 0.000519683817 0.000173746093 0.000530522688 -0.983049369032 0.084776614921
0.070595359000 -0.967821284770 0.157852809518 0.000208764757 0.000512279456 0.000227886033 0.000528216132 -0.982884524866 0.085309674070
0.071195319000 -0.967488511580 0.159130053430 0.000155974600 0.000499768486 0.000221715522 0.000502845402 -0.982747658433 0.085926145533
0.071795279000 -0.967320001477 0.160351620368 0.000158953197 0.000520399518 0.000115735022 0.000436886509 -0.982716665460 0.086524975441
0.072395239000 -0.966783673010 0.161422042951 0.000187493522 0.000523412022 0.000160681083 0.000511129124 -0.982545789345 0.086953344929
0.072995199000 -0.966616515181 0.162766056767 0.000189100317 0.000515854488 0.000200096302 0.000573945061 -0.982513524031 0.087644803096
0.073595159000 -0.966361205247 0.164109979800 0.000211396573 0.000483686785 0.000164147979 0.000564000991 -0.982657142512 0.088339991198
0.074195119000 -0.965914539256 0.165328096470 0.000223019312 0.000526978192 0.000183942599 0.000489777975 -0.982117880474 0.088979811168
0.074795079000 -0.965720563359 0.166381995861 0.000207557955 0.000528165830 0.000212721098 0.000566136085 -0.982253059441 0.089792118345
0.075395039000 -0.965602260895 0.167375112087 0.000194674555 0.000557172969 0.000182285867 0.000547497527 -0.982328471976 0.090484657584
0.075994999000 -0.965215193755 0.168444047691 0.000177188475 0.000522852410 0.000168722296 0.000547714229 -0.982209088593 0.091393845585
0.076594959000 -0.965069310688 0.169405879030 0.000215442039 0.000560057449 0.000152023318 0.000563090448 -0.981944140213 0.092258495993
0.077194919000 -0.964747625519 0.171224749602 0.000187153650 0.000533375578 0.000207786283 0.000524893614 -0.981896183818 0.092774398656
0.077794879000 -0.964212788241 0.172293828135 0.000198865755 0.000530765870 0.000258402802 0.000558697953 -0.981636866832 0.093479888669
0.078394839000 -0.964123875428 0.173734787202 0.000160227702 0.000549207941 0.000218293031 0.000583342775 -0.981676694906 0.094152545919
0.078994799000 -0.963911613653 0.174758813472 0.000162055378 0.000554719347 0.000240139425 0.000625907629 -0.981384729464 0.094659213145
0.079594759000 -0.963846794457 0.175712544326 0.000202604944 0.000553951906 0.000266396961 0.000572270983 -0.981303759031 0.094966919189
0.080194719000 -0.963201310803 0.177207994659 0.000235917957 0.000560713139 0.000228342891 0.000554961864 -0.981293913631 0.096094780306
0.080794679000 -0.962960295763 0.178918319339 0.000217941621 0.000582135964 0.000193219994 0.000532355099 -0.981281447931 0.096660836486
0.081394639000 -0.962816472820 0.179684784675 0.000202758692 0.000592236458 0.000241510538 0.000553110367 -0.981028771732 0.097099750568
0.081994599000 -0.962653569608 0.180452772989 0.000206958156 0.000568591851 0.000206008937 0.000534102409 -0.981166520293 0.098052390831
0.082594559000 -0.962187686894 0.182160949079 0.000214716687 0.000600212185 0.000200175513 0.000570479836 -0.981007287187 0.098930072587
0.083194519000 -0.961961893796 0.183871636286 0.000233589246 0.000583773970 0.000199325695 0.000597188795 -0.980916177102 0.099357720191
0.083794479000 -0.961694076184 0.185045656165 0.000192184510 0.000582380954 0.000149133047 0.000619635686 -0.980806318385 0.100174662728
0.084394439000 -0.961399651638 0.186276594801 0.000233160166 0.000584661773 0.000199342375 0.000586212895 -0.980877840105 0.100845125176
0.084994399000 -0.960943285466 0.187058558357 0.000262184988 0.000583110154 0.000194539699 0.000606903148 -0.980641444621 0.101496630775
0.085594359000 -0.960786497852 0.188624670597 0.000206811585 0.000556840560 0.000168778319 0.000645574721 -0.980614271528 0.102086193066
0.086194319000 -0.960616475132 0.189776513468 0.000211099731 0.000587401410 0.000152229628 0.000672643307 -0.980386333703 0.102496811582
0.086794279000 -0.960162488574 0.191432255791 0.000200193711 0.000601765014 0.000202692484 0.000633601943 -0.980443480733 0.103338863352
0.087394239000 -0.959771708609 0.192590705809 0.000246911737 0.000601626466 0.000234059522 0.000631203690 -0.980232005232 0.103707635767
