# GHZ S RI R 50.000000000000
0.001000000000 1.004866324718 -0.004039774263 0.000141800112 -0.001686358107 -0.000962164403 -0.001651193853 0.998328654721 -0.012141152376
0.001599959000 1.000608733265 -0.012758317465 0.000545813552 -0.000979046630 -0.000290778042 -0.000891511488 0.998701600633 -0.017228205778
0.002199919000 1.000688111211 -0.017415611652 0.000487097629 -0.000631175702 -0.000088646848 -0.000681843559 0.997924431582 -0.026470841265
0.002799879000 1.000810037935 -0.021440326298 0.000349092208 -0.000446257890 0.000033715418 -0.000513251668 0.998428959160 -0.031383068391
0.003399839000 0.997754316659 -0.025749186378 0.000268540427 -0.000311946450 0.000018483958 -0.000283788468 0.996695715079 -0.041122736828
0.003999799000 0.997061300255 -0.028951519444 0.000279461085 -0.000228680822 0.000086697541 -0.000338335704 0.996202629027 -0.048884990364
0.004599759000 0.996473655774 -0.033365780443 0.000317051857 -0.000270443030 0.000119058895 -0.000308256975 0.995720379688 -0.056265104943
0.005199719000 0.995630081484 -0.037970172118 0.000291385456 -0.000101539954 0.000123417498 -0.000182219593 0.995747379918 -0.063583233375
0.005799679000 0.995613822883 -0.040772560387 0.000299035607 -0.000096698867 0.000140262256 -0.000071190310 0.994905787837 -0.071300473785
0.006399639000 0.995331235886 -0.044867039009 -0.001014043906 -0.001498402257 0.000938045451 0.001745143308 0.996883528974 -0.078885011586
0.006999599000 0.995111991062 -0.048614178756 0.000233329532 -0.000046104128 0.000186592115 -0.000080251631 0.993854425377 -0.086176217262
0.007599559000 0.994680347814 -0.052571212139 0.000278629795 -0.000012572353 0.000015772324 -0.000061101421 0.993150382516 -0.093705049677
0.008199519000 0.994244751513 -0.056314836981 0.000157393891 0.000020285142 0.000129383074 -0.000008226271 0.992372962050 -0.100697208244
0.008799479000 0.994022122507 -0.059828092256 0.000225909230 0.000016511200 0.000044516559 0.000065972468 0.991720029237 -0.108051799095
0.009399439000 0.993979934215 -0.063645279919 0.000265638147 0.000021166430 0.000042135590 0.000028895768 0.990859518045 -0.115116926752
0.009999399000 0.992730162291 -0.068112436770 0.000141510051 -0.000004180535 0.000061641416 0.000050295380 0.990190283449 -0.122339956158
0.010599359000 0.993120158789 -0.071746696064 0.000180194730 -0.000047072203 0.000044659104 0.000106967070 0.989218892089 -0.129525839021
0.011199319000 0.992844780707 -0.075610456394 0.000080787683 -0.000095998879 0.000103942751 0.000124292517 0.988358509899 -0.136861170770
0.011799279000 0.992497936345 -0.079628670016 0.000052970772 -0.000022602033 0.000101091750 0.000030002011 0.987297384112 -0.144189651351
0.012399239000 0.992270604466 -0.082871486463 0.000032991969 -0.000028769834 0.000064324886 0.000067609691 0.986348574526 -0.151378487268
0.012999199000 0.992164153745 -0.086827123946 0.000048992001 0.000023282525 0.000091339694 0.000043574139 0.985322515054 -0.158412393822
0.013599159000 0.991816484590 -0.090734131202 0.000013900645 0.000049210446 0.000038213465 0.000025219853 0.984305202159 -0.165638178028
0.014199119000 0.991360302078 -0.095008444455 0.000050710199 0.000034841903 0.000007886929 0.000018802378 0.983052263558 -0.173391763054
0.014799079000 0.991178792685 -0.098806993404 -0.000007321432 0.000002332169 0.000042161384 0.000036687466 0.981895627302 -0.180762476194
0.015399039000 0.990579800547 -0.102563925044 -0.000014490304 0.000063468460 0.000015114340 -0.000006272049 0.980316823740 -0.188565066544
0.015998999000 0.989990439578 -0.106722923951 -0.000009382154 0.000066283792 0.000011405383 -0.000020572459 0.979037893842 -0.196324979504
0.016598959000 0.989494650406 -0.110643849370 -0.000033311351 -0.000017947497 -0.000023387266 0.000022784109 0.977691950704 -0.203356760654
0.017198919000 0.989345668219 -0.114420907132 0.000042019788 0.000011144772 0.000028033266 -0.000009093756 0.975997430466 -0.210810129387
0.017798879000 0.988638579877 -0.118671469838 0.000004317244 0.000052712530 0.000030482287 0.000022532405 0.974178610576 -0.218062623082
0.018398839000 0.988369503334 -0.122265482448 -0.000047612173 0.000047050061 -0.000025622789 -0.000019080731 0.972588058519 -0.225589929261
0.018998799000 0.987594211428 -0.126147217385 -0.000097391085 0.000012467902 0.000039517194 0.000137692099 0.971032061227 -0.232577603332
0.019598759000 0.987311385805 -0.130061420641 -0.000014360469 0.000072571569 0.000007816048 -0.000032817464 0.968988000282 -0.239949122281
0.020198719000 0.986719130409 -0.133834635638 0.000016166027 0.000008666646 -0.000075940411 -0.000046405007 0.967264308136 -0.247309642229
0.020798679000 0.986039944446 -0.137873700129 0.000004708093 0.000098952751 -0.000032220802 0.000030890815 0.965491895151 -0.254055927074
0.021398639000 0.985587820991 -0.141593364947 -0.000002056197 0.000007292074 0.000033430946 -0.000021277693 0.963160288354 -0.261348191445
0.021998599000 0.984788577144 -0.145484404129 -0.000034267715 -0.000008036074 0.000032550283 -0.000027868825 0.961136844730 -0.268664970165
0.022598559000 0.984263223107 -0.149879297369 0.000034602975 -0.000006602841 0.000054568831 0.000017340569 0.959028000764 -0.275909845221
0.023198519000 0.983754114467 -0.153013328444 0.000004024747 0.000013817216 0.000030808592 -0.000014113257 0.957159073652 -0.282829458200
0.023798479000 0.983268254305 -0.157172044146 -0.000009059315 0.000102157258 0.000063373199 0.000034217131 0.954785768056 -0.290235490142
0.024398439000 0.982812500893 -0.161087395357 0.000004482561 0.000022385678 0.000062283191 -0.000015975469 0.952497869451 -0.297342335537
0.024998399000 0.981993989117 -0.164956461438 0.000000862739 -0.000001435857 0.000074509960 -0.000020534686 0.950328856421 -0.304341789450
0.025598359000 0.980647223023 -0.168760207849 0.000012047438 0.000024610417 0.000101071873 -0.000041259667 0.946985025208 -0.310987599852
0.026198319000 0.980305431401 -0.172435904788 0.000014426341 0.000067618898 0.000057074304 -0.000036942263 0.944460325233 -0.318365293172
0.026798279000 0.979643695113 -0.176596116009 -0.000014675347 0.000035638789 0.000016921138 0.000029907862 0.942275440466 -0.325536429869
0.027398239000 0.978824444427 -0.180671966444 -0.000019194245 0.000012157117 -0.000013731310 -0.000008424288 0.939565237309 -0.333028533448
0.027998199000 0.978176977666 -0.184765374611 0.000001621742 0.000035980855 0.000002732175 0.000026653644 0.937324823326 -0.340064196551
0.028598159000 0.977758999623 -0.188588024156 -0.000006822317 0.000038206393 0.000045138945 0.000037410834 0.934799321114 -0.347222728722
0.029198119000 0.977316408930 -0.192547528057 0.000006397386 0.000027789314 0.000030006394 0.000012061971 0.932360903563 -0.354455374711
0.029798079000 0.975947466418 -0.196805163295 0.000038037575 0.000044998776 0.000049250366 0.000025265669 0.929983000077 -0.361239257634
0.030398039000 0.975272747287 -0.200919540422 -0.000004962995 0.000024738078 -0.000007327786 0.000002540792 0.927572100468 -0.367931697756
0.030997999000 0.974263370451 -0.204599528084 0.000014841155 0.000043615646 0.000016134777 0.000025630149 0.924177425861 -0.375117424835
0.031597959000 0.973834287240 -0.208456150071 -0.000011534535 0.000048831826 -0.000001550886 0.000013263084 0.921322658069 -0.382294662628
0.032197919000 0.972940253162 -0.211633403557 0.000023020352 0.000026336604 0.000038653329 0.000007601602 0.918291292030 -0.389173614200
0.032797879000 0.971935640162 -0.215578296550 0.000023494712 0.000022405362 0.000015193795 -0.000015897021 0.915093359808 -0.395941745500
0.033397839000 0.970810432286 -0.220167734035 0.000030609991 0.000023286800 0.000045404455 0.000038246360 0.911727092232 -0.402754351230
0.033997799000 0.969792185804 -0.224031972460 0.000020297576 0.000018215309 0.000065202159 0.000052517810 0.908280260164 -0.409997967017
0.034597759000 0.968811478069 -0.227859441376 0.000001819512 0.000027622652 0.000037319982 -0.000000377105 0.904859110934 -0.416823830616
0.035197719000 0.967922112229 -0.231210508371 0.000013359951 0.000042533468 0.000030823191 -0.000034723952 0.901266724850 -0.423648974496
0.035797679000 0.966921811609 -0.235457395128 0.000027559698 0.000041010395 0.000017791643 -0.000010781851 0.898016201493 -0.430498585391
0.036397639000 0.965784873249 -0.239356990568 0.000031245755 0.000051910219 0.000050162084 0.000053136259 0.894170900258 -0.437609364577
0.036997599000 0.964790927023 -0.243255898607 -0.000024491442 0.000024195757 0.000009721564 0.000029334646 0.890306531788 -0.445065517114
0.037597559000 0.963903555645 -0.246974856533 0.000042741599 0.000025504250 0.000057295610 0.000014542098 0.887186282898 -0.451388758786
0.038197519000 0.962894342816 -0.251241157879 0.000020143036 0.000042943922 0.000043205135 -0.000023832988 0.883392057049 -0.458488091038
0.038797479000 0.961814651265 -0.255393872573 0.000015395393 0.000061883685 0.000030641973 0.000038909560 0.879635286448 -0.465441408911
0.039397439000 0.960762122810 -0.259581470096 0.000031761623 0.000074466765 0.000011886703 0.000050547571 0.876095690628 -0.471980187667
0.039997399000 0.959738414251 -0.263426522509 0.000036325943 0.000069074380 0.000033876884 0.000031978253 0.872159461190 -0.478904529337
0.040597359000 0.958618645565 -0.267294776258 0.000000973483 0.000010368490 0.000034597746 0.000050270009 0.868470369367 -0.485934900278
0.041197319000 0.957553991693 -0.271271630990 0.000058231348 0.000022884081 0.000037375899 0.000004941817 0.864097382592 -0.492604524213
0.041797279000 0.956496592344 -0.275105673869 0.000003620306 0.000037706236 0.000034225914 0.000041556459 0.860070948716 -0.499477568600
0.042397239000 0.955586104385 -0.278888243070 -0.000029974979 0.000077916625 0.000107650694 0.000089340445 0.856136404490 -0.506042644544
0.042997199000 0.954162547605 -0.282878046606 -0.000020591892 0.000009256329 0.000090851861 0.000043778569 0.852505922134 -0.512288809939
0.043597159000 0.952852698974 -0.286972674605 0.000042209265 0.000060887348 0.000048577995 0.000045677695 0.848235183084 -0.519353719935
0.044197119000 0.951724949310 -0.290790681324 0.000008659134 0.000054311396 0.000070676979 0.000042983768 0.843971845305 -0.525986604578
0.044797079000 0.950444896070 -0.294997497150 -0.000001187281 0.000097175155 0.000082574079 0.000094546111 0.839901501451 -0.532227557421
0.045397039000 0.949304658846 -0.298555843712 0.000010233693 0.000080791361 0.000013460712 0.000036355513 0.835614268777 -0.538705746579
0.045996999000 0.948017742379 -0.302482224938 0.000052755254 0.000054056696 0.000076836469 0.000025246977 0.831895086936 -0.545150619888
0.046596959000 0.947180738887 -0.306104125970 -0.000008224957 0.000035090619 0.000024548373 0.000040213808 0.827816114992 -0.551404280429
0.047196919000 0.945747132815 -0.309912123749 0.000041366457 0.000046410109 0.000033084509 -0.000001230251 0.823315615867 -0.557997549755
0.047796879000 0.944730160361 -0.313745185117 0.000031813563 0.000063707477 0.000081150760 0.000000134477 0.819294753480 -0.564069971309
0.048396839000 0.943453804743 -0.318026394614 0.000027075218 0.000025858808 0.000063660037 0.000002695843 0.814892601980 -0.570499026993
0.048996799000 0.942256461608 -0.321431346105 0.000033340301 0.000045436534 0.000059432262 -0.000010454935 0.810673459962 -0.576828490518
0.049596759000 0.940929698057 -0.325714592679 0.000047136284 0.000035984866 0.000050013637 0.000060802314 0.806362810913 -0.582640215611
0.050196719000 0.939624888334 -0.329059493104 0.000067720434 0.000094470678 0.000076486277 0.000042677812 0.802029856051 -0.588717538654
0.050796679000 0.938083846153 -0.333095125271 0.000004910850 0.000105281867 0.000060733917 0.000040680658 0.797595329887 -0.594380468261
0.051396639000 0.937165225811 -0.336455856843 0.000070764211 0.000044912968 0.000070879295 0.000042524048 0.792921639980 -0.600760445044
0.051996599000 0.935935455919 -0.340221521633 0.000040556558 0.000047375128 0.000086162536 0.000038317775 0.788593682995 -0.606459696535
0.052596559000 0.934338994269 -0.344069335378 0.000031575976 0.000016560995 0.000068944399 0.000044986443 0.784040060728 -0.612304113648
0.053196519000 0.933114220285 -0.347836583839 0.000030658483 0.000032744828 0.000089960472 0.000016449045 0.779547227813 -0.618115004634
0.053796479000 0.931688351328 -0.351381009725 0.000015446280 0.000030959411 0.000048154515 0.000017213648 0.774849087666 -0.623827385530
0.054396439000 0.930042179489 -0.355010174672 0.000062797040 0.000043403401 0.000070689921 0.000042468801 0.770176102427 -0.629797564012
0.054996399000 0.928779023852 -0.358772610534 0.000040273009 0.000068500789 0.000047283831 0.000076317989 0.765308670066 -0.635659689350
0.055596359000 0.927329154410 -0.362335571354 0.000050238323 0.000031298245 0.000063839698 0.000080195907 0.760432017753 -0.641512783487
0.056196319000 0.926142983344 -0.365862550495 0.000066349596 0.000091376545 0.000062862090 0.000114011757 0.756082182570 -0.647179926013
0.056796279000 0.924722539653 -0.369288750273 0.000041714413 0.000057853697 0.000107136959 0.000050827992 0.750981652203 -0.652759613447
0.057396239000 0.923212070762 -0.373174008956 -0.000000361260 0.000040540939 0.000077336105 0.000053581257 0.746029172310 -0.658552110503
0.057996199000 0.921794826488 -0.376688279170 0.000015274498 0.000046492751 0.000045150778 0.000059125586 0.741034005726 -0.664076418023
0.058596159000 0.920180941974 -0.380181682946 0.000080136439 0.000053721792 0.000072948351 0.000062861914 0.735920571819 -0.669615924970
0.059196119000 0.918762751824 -0.383832271976 0.000058143701 0.000067075068 0.000072190685 0.000076004208 0.730676457852 -0.675137388992
0.059796079000 0.917209153733 -0.387306871354 0.000063511939 0.000060644472 0.000116921815 0.000077962392 0.725794935444 -0.680625416220
0.060396039000 0.915611420734 -0.390712937700 0.000040979675 0.000044341455 0.000049987806 0.000049223621 0.720395657889 -0.686261800847
0.060995999000 0.913812532852 -0.394596937395 0.000020562567 0.000048301228 0.000024748120 0.000080782306 0.714800403522 -0.691361568449
0.061595959000 0.911913148458 -0.398541496424 0.000011805625 0.000061407470 0.000094098470 0.000047343243 0.709100539855 -0.697163565922
0.062195919000 0.910089119251 -0.402743143510 0.000063559567 0.000053768705 0.000065679758 0.000034378261 0.702704980257 -0.702865404352
0.062795879000 0.908571035570 -0.406331435539 0.000026025699 0.000058199635 0.000077305408 0.000077378824 0.697399550225 -0.708518120755
0.063395839000 0.906849624683 -0.409896526687 0.000026538141 0.000046495964 0.000047929623 0.000078566559 0.691968719592 -0.713652719977
0.063995799000 0.905415891207 -0.413495586875 0.000084730290 0.000084335187 0.000106842770 0.000077790270 0.686371441505 -0.719022416365
0.064595759000 0.903733517471 -0.417173416272 0.000057384174 0.000076276595 0.000033385903 0.000085639926 0.680616300517 -0.724307233874
0.065195719000 0.901895108998 -0.420814261335 0.000077687313 0.000102963565 0.000128223688 0.000065862112 0.674936986247 -0.729243936704
0.065795679000 0.900441591079 -0.424046338083 0.000062264003 0.000081881422 0.000079356061 0.000088049083 0.669288370140 -0.734391076109
0.066395639000 0.898639311380 -0.427747442891 0.000049018775 0.000088596977 0.000069790343 0.000068994729 0.663637520149 -0.739441562692
0.066995599000 0.896661372518 -0.431953699230 0.000075936470 0.000051658890 0.000111779894 0.000078135265 0.657523689758 -0.744732810650
0.067595559000 0.894981805938 -0.435237578204 0.000081129869 0.000068525598 0.000057716990 0.000067683129 0.651751208604 -0.749740844498
0.068195519000 0.893217337761 -0.438796623480 0.000028473523 0.000088758689 0.000119875082 0.000082063957 0.645425000557 -0.754779468535
0.068795479000 0.891033001610 -0.442668549095 0.000094072490 0.000083327398 0.000079220257 0.000075580198 0.639332870203 -0.759783149499
0.069395439000 0.889442036843 -0.446183640947 0.000095578953 0.000045066594 0.000036371850 0.000114868908 0.633270647808 -0.764625521105
0.069995399000 0.887673480411 -0.449620971285 0.000082281488 0.000086456950 0.000049397437 0.000069378318 0.626933869414 -0.769502725267
0.070595359000 0.886006283527 -0.453276175090 0.000113703563 0.000095897145 0.000095274352 0.000089983727 0.620410706471 -0.774396600426
0.071195319000 0.883903000893 -0.457102399143 0.000074514643 0.000057021113 0.000071899283 0.000115437824 0.614153624621 -0.779160834448
0.071795279000 0.882262514350 -0.460382426900 0.000073161951 0.000092085268 0.000076696604 0.000049410819 0.607986272378 -0.783690703266
0.072395239000 0.880073238636 -0.463770241344 0.000121720037 0.000073769181 0.000091957965 0.000094625856 0.601386319002 -0.788424015041
0.072995199000 0.877926025900 -0.467668816475 0.000100248281 0.000065468827 0.000064159764 0.000072900548 0.595057811069 -0.793027608737
0.073595159000 0.876220384637 -0.470889629507 0.000070127112 0.000110978796 0.000133519577 0.000110390386 0.588839837646 -0.797414588235
0.074195119000 0.873946983573 -0.474990376481 0.000135297491 0.000075196282 0.000115980841 0.000079845041 0.582137971731 -0.802113412259
0.074795079000 0.872129118722 -0.478145729991 0.000074632570 0.000025946683 0.000115619419 0.000102303307 0.575945684241 -0.806523609567
0.075395039000 0.870118875647 -0.481414110067 0.000067846178 0.000068720275 0.000098828262 0.000086474136 0.568965280034 -0.810911574120
0.075994999000 0.867769211902 -0.485445485573 0.000109432967 0.000082322624 0.000118936534 0.000077566855 0.562714171828 -0.815380814549
0.076594959000 0.866172650164 -0.488461290553 0.000088399477 0.000060760059 0.000106981273 0.000110467166 0.555926299479 -0.819824929010
0.077194919000 0.863861795284 -0.492295671592 0.000077895475 0.000078253220 0.000096442775 0.000093540911 0.549056084225 -0.824200214042
0.077794879000 0.861860940431 -0.495761715869 0.000113209193 0.000072525003 0.000068093143 0.000073787405 0.542127799512 -0.828370143065
0.078394839000 0.859694001068 -0.499312031470 0.000092062168 0.000092366370 0.000070476337 0.000130215419 0.535322237670 -0.832671082298
0.078994799000 0.857830172286 -0.502832628438 0.000095281308 0.000090832826 0.000103396249 0.000067008410 0.528545036110 -0.836677970167
0.079594759000 0.855505119386 -0.506609432347 0.000117578294 0.000064549702 0.000097190012 0.000082116429 0.521765098408 -0.840734980518
0.080194719000 0.853653293890 -0.509701688016 0.000057486959 0.000091313827 0.000063511974 0.000083880520 0.515109963805 -0.844693026864
0.080794679000 0.851475539251 -0.513187998735 0.000083063736 0.000129877418 0.000094521207 0.000119926301 0.508023280138 -0.848817072437
0.081394639000 0.849196226582 -0.516581531909 0.000103108972 0.000081054302 0.000111338936 0.000109750066 0.500693729240 -0.852968705728
0.081994599000 0.846896651586 -0.520171339634 0.000113328926 0.000055702677 0.000104588497 0.000075845445 0.493923726338 -0.856556423335
0.082594559000 0.844881957666 -0.523531547326 0.000092653606 0.000053009498 0.000094158889 0.000130739109 0.486594745843 -0.860500251397
0.083194519000 0.842511951799 -0.527182370223 0.000089357232 0.000072736764 0.000103038502 0.000076741834 0.479829265509 -0.864280548502
0.083794479000 0.840380479123 -0.530424358499 0.000121599131 0.000092367996 0.000118659590 0.000090680713 0.472534756069 -0.867908859168
0.084394439000 0.837756193040 -0.534135848381 0.000066130260 0.000067576296 0.000151978598 0.000099744534 0.465332870224 -0.871536259116
0.084994399000 0.835721862316 -0.537763810350 0.000107480520 0.000062036518 0.000134440537 0.000075395887 0.458051879388 -0.875308003416
0.085594359000 0.833444566160 -0.541193480377 0.000092008689 0.000086781464 0.000127521116 0.000098210469 0.450861561477 -0.878914530811
0.086194319000 0.831273366608 -0.544285575199 0.000053881997 0.000065113249 0.000132429528 0.000102050204 0.443419801682 -0.882433211922
0.086794279000 0.829252133309 -0.547368303426 0.000145512794 0.000092737530 0.000109056910 0.000107451168 0.436328916804 -0.885675527185
0.087394239000 0.826717789839 -0.551166417547 0.000086451860 0.000083996693 0.000116717997 0.000084813302 0.428450063357 -0.889036178558
