# GHZ S RI R 50.000000000000
0.001000000000 -0.005063650223 -0.001333422814 0.506217610373 -0.006922276248 0.504521636645 -0.006138200954 -0.003700476793 -0.001537114518
0.001599959000 -0.005124071539 -0.000772296038 0.505846622164 -0.006526386662 0.504032797367 -0.003316002048 -0.004248436130 -0.000823174703
0.002199919000 -0.004924983755 -0.000629723990 0.504638522950 -0.008116212905 0.503927239615 -0.002806867948 -0.004763127270 -0.000676795083
0.002799879000 -0.005520897275 -0.000296248868 0.504176947896 -0.008855251614 0.504086683984 -0.002305663934 -0.005131032714 -0.000414715861
0.003399839000 -0.005371369217 -0.000359443288 0.503734431150 -0.009813531142 0.504097040847 -0.004236927497 -0.005152849374 -0.000652886306
0.003999799000 -0.005464610622 -0.000490382815 0.503661810259 -0.010347200443 0.504345610465 -0.004846747505 -0.005247698035 -0.000528390270
0.004599759000 -0.005610136270 -0.000484006818 0.503395776720 -0.011161906049 0.504130643181 -0.005527445034 -0.005305997804 -0.000467181670
0.005199719000 -0.005606279499 -0.000507875999 0.503248728422 -0.011982002212 0.504462472241 -0.006271707999 -0.005398858058 -0.000387990190
0.005799679000 -0.005627155341 -0.000415453573 0.503164421432 -0.012824953596 0.503989252971 -0.007359518183 -0.005464516330 -0.000485638813
0.006399639000 -0.007120551029 0.001121899125 0.502062657854 -0.011887216896 0.506579036127 -0.008362090650 -0.004865939000 -0.000800349493
0.006999599000 -0.005701098149 -0.000439714304 0.502618883282 -0.014168379778 0.503967218836 -0.008829318973 -0.005525273944 -0.000360515417
0.007599559000 -0.005773608571 -0.000398420248 0.502711325194 -0.014624066561 0.503867540201 -0.009403248334 -0.005537137080 -0.000281487361
0.008199519000 -0.005783776754 -0.000397888976 0.502617812059 -0.015364292129 0.503690789541 -0.009919517032 -0.005644398268 -0.000317708956
0.008799479000 -0.005677780545 -0.000386001500 0.502700777650 -0.015876523843 0.503729268458 -0.010577112827 -0.005544813589 -0.000249911708
0.009399439000 -0.005730687498 -0.000378386933 0.502482762059 -0.016322998124 0.503534041052 -0.011008152080 -0.005684972759 -0.000253211337
0.009999399000 -0.005835043467 -0.000412363951 0.502454386482 -0.016846145991 0.503024719157 -0.011384228607 -0.005624515778 -0.000184908604
0.010599359000 -0.005781462746 -0.000316742435 0.502108848970 -0.017358002046 0.503138515822 -0.011829556326 -0.005668680126 -0.000130702053
0.011199319000 -0.005744474540 -0.000253245698 0.502191943089 -0.017728023674 0.503195534035 -0.012399162194 -0.005637904389 -0.000126776993
0.011799279000 -0.005714069857 -0.000199015597 0.502111110182 -0.018273512782 0.503065342250 -0.012765080630 -0.005682595190 -0.000086931345
0.012399239000 -0.005799683665 -0.000216148297 0.502063135461 -0.018836959761 0.502895976111 -0.013198605664 -0.005633245802 -0.000015675259
0.012999199000 -0.005761411214 -0.000131327385 0.501936392003 -0.019115927480 0.502851028535 -0.013477021179 -0.005665574500 -0.000035579958
0.013599159000 -0.005802170824 -0.000136099758 0.501981642499 -0.019494888345 0.502695768865 -0.013808252585 -0.005642708980 0.000028305709
0.014199119000 -0.005764891475 -0.000124159559 0.501672159136 -0.019682922890 0.502651153158 -0.014061255830 -0.005626126556 0.000037796027
0.014799079000 -0.005820793376 -0.000058136536 0.501586999675 -0.019950890731 0.502541919492 -0.014208474446 -0.005660365555 0.000143449848
0.015399039000 -0.005734290650 0.000005013143 0.501603324068 -0.020060955845 0.502528832704 -0.014483679410 -0.005583677938 0.000228229857
0.015998999000 -0.005682311120 0.000011895042 0.501636552955 -0.019970954663 0.502562965489 -0.014643326458 -0.005601257244 0.000220155128
0.016598959000 -0.005782477151 0.000054204389 0.501446153212 -0.020214671176 0.502357477837 -0.014907843986 -0.005636532831 0.000311517715
0.017198919000 -0.005671911697 0.000130870292 0.501343898011 -0.020223708025 0.502363587526 -0.015012110191 -0.005547973775 0.000378701255
0.017798879000 -0.005727219460 0.000085693950 0.501353941804 -0.020600914455 0.502325487710 -0.015430533402 -0.005629844391 0.000387102186
0.018398839000 -0.005663194359 0.000215383992 0.501413788340 -0.020688312004 0.502296608729 -0.015550199674 -0.005513125525 0.000455708448
0.018998799000 -0.005716472722 0.000079338696 0.501283662543 -0.020996064783 0.502115699379 -0.015884622113 -0.005572436170 0.000493827924
0.019598759000 -0.005676105559 0.000280179188 0.501138782347 -0.021294681107 0.502092736049 -0.016109881326 -0.005540531354 0.000542249839
0.020198719000 -0.005593161275 0.000295084753 0.501099850500 -0.021539417129 0.501918378097 -0.016592053018 -0.005548913800 0.000510306231
0.020798679000 -0.005639343868 0.000338969829 0.501030926284 -0.021874475782 0.501999225038 -0.016852136562 -0.005497666693 0.000550539070
0.021398639000 -0.005693395230 0.000295200713 0.500933763275 -0.022343439855 0.501727261047 -0.017309685410 -0.005587799106 0.000576322059
0.021998599000 -0.005619349904 0.000381563599 0.500877211339 -0.022445583917 0.501689084679 -0.017415101609 -0.005533873934 0.000669968402
0.022598559000 -0.005629162077 0.000408184226 0.500978643119 -0.022769371714 0.501694485131 -0.017639320933 -0.005508186005 0.000643773852
0.023198519000 -0.005577268032 0.000402096549 0.500961629433 -0.022979425563 0.501744130964 -0.018082016811 -0.005444969928 0.000708627075
0.023798479000 -0.005582279795 0.000398279429 0.500771406410 -0.023533753748 0.501611761860 -0.018322896024 -0.005451839817 0.000727517858
0.024398439000 -0.005609591468 0.000433810817 0.500839407987 -0.023721013028 0.501519508146 -0.018649915342 -0.005555390718 0.000722119657
0.024998399000 -0.005546049339 0.000527210255 0.500753912123 -0.024062259718 0.501458951569 -0.018960698464 -0.005459169330 0.000750098744
0.025598359000 -0.005742872752 0.000228192658 0.500432256969 -0.028604483464 0.502067415061 -0.022999322273 -0.005662857517 0.000625490071
0.026198319000 -0.005736384864 0.000243858911 0.500435978669 -0.028622954819 0.501992528893 -0.023233595038 -0.005661388212 0.000616403599
0.026798279000 -0.005744619649 0.000297738767 0.500392567391 -0.028806993944 0.501939320343 -0.023402458129 -0.005635961156 0.000707959288
0.027398239000 -0.005649022979 0.000345700206 0.500461991018 -0.028883611097 0.501806218645 -0.023568544908 -0.005679716968 0.000743622286
0.027998199000 -0.005616448503 0.000341100150 0.500570415994 -0.028719353395 0.501734306060 -0.023440284685 -0.005572405495 0.000756150406
0.028598159000 -0.005599533004 0.000390234980 0.500505303768 -0.028611224838 0.501793863990 -0.023296110335 -0.005563780788 0.000822383001
0.029198119000 -0.005526218386 0.000485826857 0.500597857663 -0.028431485763 0.501687368247 -0.023235927696 -0.005556433904 0.000878153968
0.029798079000 -0.005515644762 0.000510669331 0.500564899690 -0.028176361289 0.501529331684 -0.022702133967 -0.005481435861 0.000936772776
0.030398039000 -0.005349608359 0.000489550854 0.500367977912 -0.028200142760 0.501432543290 -0.022814184867 -0.005450447071 0.001028764703
0.030997999000 -0.005408794311 0.000557968092 0.500329225735 -0.028692350884 0.501307111942 -0.023028056918 -0.005444244852 0.001019896431
0.031597959000 -0.005399507362 0.000606260385 0.500350504386 -0.028995691324 0.501439012660 -0.023476191172 -0.005446521802 0.001057744134
0.032197919000 -0.005415997138 0.000594694423 0.500346880351 -0.029463367613 0.501358322792 -0.023858342154 -0.005430525969 0.001069604953
0.032797879000 -0.005446741806 0.000612033577 0.500200348654 -0.030008707547 0.501385911356 -0.024580344555 -0.005439403862 0.001041472386
0.033397839000 -0.005478381042 0.000632616508 0.500117466042 -0.030612364124 0.501270618109 -0.025068728984 -0.005514791281 0.001165137855
0.033997799000 -0.005410340075 0.000630504230 0.500057729970 -0.031335053836 0.501295162782 -0.025501706087 -0.005493223813 0.001156924267
0.034597759000 -0.005483070547 0.000678048798 0.499900885024 -0.031707281085 0.501220135236 -0.026027236801 -0.005483478139 0.001120494760
0.035197719000 -0.005451550651 0.000685936903 0.499802192283 -0.032220544667 0.501280038508 -0.026549271397 -0.005438741769 0.001200930309
0.035797679000 -0.005463897166 0.000647441931 0.499791189981 -0.032878906289 0.501269314258 -0.027090347148 -0.005445273834 0.001219821160
0.036397639000 -0.005464797192 0.000665002186 0.499812200064 -0.033320773071 0.501441914651 -0.027662933021 -0.005496879713 0.001263106980
0.036997599000 -0.005395828025 0.000743664168 0.499754437964 -0.033535081629 0.501342289570 -0.027991700961 -0.005517470714 0.001286208033
0.037597559000 -0.005369689985 0.000690226912 0.499759477437 -0.033938455784 0.501417011070 -0.028346680533 -0.005529886213 0.001292285568
0.038197519000 -0.005421592215 0.000698929621 0.499798068457 -0.034231361282 0.501491229101 -0.028819190546 -0.005443410617 0.001328205846
0.038797479000 -0.005458601461 0.000702236417 0.499778565968 -0.034571512689 0.501456413933 -0.029317561349 -0.005433587903 0.001368212529
0.039397439000 -0.005395921058 0.000747684083 0.499738307435 -0.035015365056 0.501387387978 -0.029762306709 -0.005468420408 0.001371576495
0.039997399000 -0.005376120684 0.000776444600 0.499683545719 -0.035277959609 0.501348029041 -0.029854954397 -0.005463038318 0.001428019890
0.040597359000 -0.005335132815 0.000759758086 0.499648439720 -0.035708157468 0.501341376493 -0.030140707218 -0.005446789957 0.001429415914
0.041197319000 -0.005354133951 0.000785537963 0.499675625400 -0.035880842875 0.501339131325 -0.030474831027 -0.005431738322 0.001449879867
0.041797279000 -0.005255804550 0.000786808284 0.499730974027 -0.036055441356 0.501314608172 -0.030679478617 -0.005398483725 0.001491357666
0.042397239000 -0.005257010554 0.000844381933 0.499660285456 -0.036308856339 0.501321863634 -0.031015068091 -0.005400070579 0.001553160564
0.042997199000 -0.005255720205 0.000837551094 0.499787433054 -0.036804171209 0.501250494561 -0.031531187951 -0.005377694995 0.001551356037
0.043597159000 -0.005242584703 0.000882620555 0.499653210749 -0.037206084434 0.501337726542 -0.031951211814 -0.005394385260 0.001559216014
0.044197119000 -0.005177176165 0.000825553910 0.499579203366 -0.037558259243 0.501235973502 -0.032234740532 -0.005409502521 0.001583323145
0.044797079000 -0.005183439920 0.000797005673 0.499692829711 -0.037853792881 0.501296677372 -0.032468484671 -0.005372977727 0.001654806479
0.045397039000 -0.005131997135 0.000871352684 0.499662211387 -0.038067453770 0.501268160307 -0.032745395345 -0.005285637714 0.001606548285
0.045996999000 -0.005159667348 0.000902563845 0.499677161879 -0.038130891576 0.501319346578 -0.032916759184 -0.005295707433 0.001625356499
0.046596959000 -0.005101542063 0.000912491895 0.499714592686 -0.038496431725 0.501226734896 -0.033164217790 -0.005334952126 0.001684168696
0.047196919000 -0.005096911860 0.000953631497 0.499723742896 -0.038785655110 0.501301316631 -0.033379051422 -0.005317270109 0.001698099523
0.047796879000 -0.005058652634 0.000900764062 0.499797711451 -0.038986070212 0.501278753355 -0.033639743223 -0.005276682399 0.001763303415
0.048396839000 -0.005080979982 0.000948782560 0.499809368413 -0.039279767627 0.501275623412 -0.033962165773 -0.005266997693 0.001710240797
0.048996799000 -0.004983827223 0.000984903055 0.499704878512 -0.039406790156 0.501262281407 -0.034010843191 -0.005274502864 0.001771124901
0.049596759000 -0.004984176826 0.001001806693 0.499734666266 -0.039816170364 0.501174430698 -0.034288098975 -0.005314722927 0.001807377868
0.050196719000 -0.004947621065 0.000954347889 0.499735780560 -0.039796179234 0.501216220900 -0.034568973704 -0.005238656995 0.001828517238
0.050796679000 -0.004925438870 0.000997992918 0.499685747210 -0.039914819844 0.501255536605 -0.034956882529 -0.005225374224 0.001835176436
0.051396639000 -0.004926095461 0.000990368597 0.499749223994 -0.040139500194 0.501415173193 -0.034923750381 -0.005211254553 0.001834698853
0.051996599000 -0.004929063477 0.001035318046 0.499753282006 -0.040451503546 0.501243714381 -0.035172726689 -0.005144929561 0.001879636800
0.052596559000 -0.004859101584 0.001050322626 0.499752202076 -0.040595790225 0.501191860571 -0.035407283960 -0.005125351283 0.001939002816
0.053196519000 -0.004859082675 0.001031737333 0.499616686499 -0.040805125733 0.501185215657 -0.035767212490 -0.005140207513 0.001948664090
0.053796479000 -0.004799046274 0.001113974803 0.499718535432 -0.040915083890 0.501103102261 -0.035994960302 -0.005159885097 0.002007655565
0.054396439000 -0.004780797779 0.001135435112 0.499696359871 -0.041146511398 0.501103808039 -0.036047898532 -0.005091203507 0.002032271093
0.054996399000 -0.004722526157 0.001092308089 0.499612995127 -0.041603236128 0.500987556993 -0.036371193535 -0.005094410706 0.002032233486
0.055596359000 -0.004748648433 0.001138795738 0.499629689243 -0.041755092575 0.501112694128 -0.036632299306 -0.005066433163 0.002037799890
0.056196319000 -0.004669234880 0.001167751396 0.499630973905 -0.041955642598 0.501040586912 -0.036843334329 -0.005063490804 0.002070633395
0.056796279000 -0.004683795465 0.001177700522 0.499688927828 -0.042101760125 0.501080949279 -0.036961317831 -0.004961850313 0.002128235847
0.057396239000 -0.004694139194 0.001112073613 0.499710380916 -0.042485741625 0.501048017397 -0.037329913454 -0.004950676861 0.002129927387
0.057996199000 -0.004574587388 0.001141101494 0.499637682057 -0.042662159669 0.501024723170 -0.037366336767 -0.004995753142 0.002126832051
0.058596159000 -0.004605279554 0.001155645185 0.499688935190 -0.042924777810 0.501024723065 -0.037609779687 -0.004955933887 0.002194331801
0.059196119000 -0.004533684086 0.001156960605 0.499659351326 -0.042949789688 0.501017070336 -0.037778094661 -0.004931215469 0.002226439754
0.059796079000 -0.004576353388 0.001213989139 0.499481675759 -0.043255382123 0.500759608376 -0.037960336624 -0.004865289029 0.002184454860
0.060396039000 -0.004501704649 0.001280036801 0.499469668409 -0.043354507298 0.500640380858 -0.038044707118 -0.004823794429 0.002219783435
0.060995999000 -0.004505740937 0.001247181076 0.499172225731 -0.043843810642 0.500341521633 -0.038151147319 -0.004844662216 0.002312607208
0.061595959000 -0.004467038630 0.001259345450 0.498758329840 -0.044328511950 0.500159499462 -0.038530709022 -0.004822966389 0.002332672353
0.062195919000 -0.004517379505 0.001302456897 0.498861020995 -0.045331306089 0.500087991963 -0.039549501601 -0.004868762980 0.002394111549
0.062795879000 -0.004475472168 0.001280179468 0.499064140658 -0.045560092242 0.500328710730 -0.039949015272 -0.004845323140 0.002322625541
0.063395839000 -0.004409428667 0.001260272441 0.499246441676 -0.045517459780 0.500441086405 -0.039980082528 -0.004824421623 0.002381527691
0.063995799000 -0.004428403434 0.001279205641 0.499223250763 -0.045821953305 0.500550580114 -0.040098502827 -0.004795340495 0.002336266531
0.064595759000 -0.004401814522 0.001353068923 0.499191854798 -0.046024906521 0.500526088707 -0.040155016374 -0.004736600070 0.002361732583
0.065195719000 -0.004361897797 0.001294208173 0.499116670165 -0.046123456799 0.500499503475 -0.040595840276 -0.004799551111 0.002439497239
0.065795679000 -0.004371151195 0.001344743041 0.499063480997 -0.046579338039 0.500434063514 -0.040964980124 -0.004762750273 0.002470539791
0.066395639000 -0.004271310897 0.001327423041 0.499005742494 -0.046736581574 0.500440821448 -0.041077977719 -0.004707756212 0.002501362457
0.066995599000 -0.004330078251 0.001307244093 0.499002813381 -0.047041991116 0.500362516271 -0.041249118694 -0.004711090721 0.002466039257
0.067595559000 -0.004259868652 0.001338423496 0.498959825931 -0.047258671511 0.500218949427 -0.041331550877 -0.004663690875 0.002496510807
0.068195519000 -0.004241401172 0.001390878722 0.498820103600 -0.047526656497 0.500083272312 -0.041717649695 -0.004665681700 0.002548372037
0.068795479000 -0.004261147575 0.001368653898 0.498674743327 -0.047809456977 0.499998899265 -0.041946849698 -0.004668664453 0.002548481715
0.069395439000 -0.004214694407 0.001416948404 0.498645131741 -0.048084111156 0.499980097912 -0.042368870964 -0.004597630666 0.002507056166
0.069995399000 -0.004208167033 0.001434894337 0.498595191546 -0.048473585276 0.500027636581 -0.042499054512 -0.004606321911 0.002608370955
0.070595359000 -0.004170823414 0.001452983175 0.498601001106 -0.048688996300 0.499943435653 -0.042898428489 -0.004569983279 0.002594967178
0.071195319000 -0.004167446359 0.001400371146 0.498559402358 -0.048988382888 0.499944489348 -0.043030641006 -0.004610851980 0.002654561025
0.071795279000 -0.004096560881 0.001493648267 0.498378176389 -0.049069328442 0.499875258112 -0.043324555889 -0.004556642497 0.002616705586
0.072395239000 -0.004101401042 0.001497680424 0.498353085134 -0.049309169894 0.499851865051 -0.043555683760 -0.004505799388 0.002644614079
0.072995199000 -0.004043456706 0.001477331222 0.498469724739 -0.049508349828 0.499750841721 -0.043755196246 -0.004518159043 0.002708573292
0.073595159000 -0.004037168463 0.001519204410 0.498369964775 -0.049969901130 0.499828550863 -0.044307781862 -0.004504432800 0.002677764137
0.074195119000 -0.003995056654 0.001541395020 0.498310489913 -0.050059948112 0.499610609787 -0.044413694774 -0.004461462164 0.002719370290
0.074795079000 -0.004010273845 0.001525157368 0.498278553521 -0.050391193259 0.499678941674 -0.044871558200 -0.004449365316 0.002732244472
0.075395039000 -0.003970659577 0.001521139172 0.498141872353 -0.050519780913 0.499606742208 -0.044880229035 -0.004391257109 0.002776595286
0.075994999000 -0.003973562638 0.001487783669 0.498118541475 -0.050900170435 0.499522963962 -0.045398553025 -0.004462361024 0.002771087096
0.076594959000 -0.003917163142 0.001559673911 0.498038204509 -0.051119676860 0.499499576705 -0.045611016588 -0.004391280079 0.002818392566
0.077194919000 -0.003885587034 0.001531955814 0.498026781512 -0.051701588732 0.499475400904 -0.045916945700 -0.004380447298 0.002771583863
0.077794879000 -0.003932905393 0.001601931465 0.497916021423 -0.051838814155 0.499491910183 -0.046183565058 -0.004321154229 0.002810706411
0.078394839000 -0.003810823188 0.001512490899 0.498015789143 -0.052101681564 0.499390377141 -0.046423351257 -0.004358482726 0.002878515883
0.078994799000 -0.003840649517 0.001601279490 0.497899768322 -0.052446429636 0.499310293059 -0.046664189526 -0.004296033444 0.002868947210
0.079594759000 -0.003811821561 0.001527689587 0.497920856211 -0.052961142981 0.499300928803 -0.046965276948 -0.004319916432 0.002902771197
0.080194719000 -0.003802858783 0.001563813155 0.497777378824 -0.053091193835 0.499164826485 -0.047335433262 -0.004247852668 0.002883578953
0.080794679000 -0.003746930840 0.001583379977 0.497741732900 -0.053159102349 0.499344908518 -0.047590651957 -0.004232843240 0.002908988039
0.081394639000 -0.003707950012 0.001565657961 0.497813974232 -0.053416750394 0.499098008440 -0.047997353331 -0.004202452190 0.002875182519
0.081994599000 -0.003737241422 0.001619949611 0.497723460190 -0.053867104989 0.499166210454 -0.048193596825 -0.004196670377 0.002937672729
0.082594559000 -0.003670318659 0.001576075233 0.497758690604 -0.054165835757 0.499071615073 -0.048526769645 -0.004160739837 0.002933260705
0.083194519000 -0.003670571287 0.001607428178 0.497733778297 -0.054527648627 0.499088931865 -0.048800716182 -0.004193413900 0.002922187406
0.083794479000 -0.003639581054 0.001632470786 0.497574971409 -0.054805696284 0.499185037510 -0.049107275851 -0.004148041535 0.003002301882
0.084394439000 -0.003580168991 0.001657024852 0.497631831781 -0.055126318014 0.499045274216 -0.049515101458 -0.004158295884 0.003010018295
0.084994399000 -0.003590205003 0.001582546586 0.497568383383 -0.055521521503 0.499076825484 -0.049579926092 -0.004103876285 0.003030926958
0.085594359000 -0.003559841579 0.001619653675 0.497602792454 -0.055591474568 0.499001040441 -0.050052669187 -0.004055902557 0.002956438737
0.086194319000 -0.003542699076 0.001638058715 0.497534116687 -0.055841645950 0.498899853407 -0.050440334046 -0.004037620205 0.002949534717
