! Created with skrf (http://scikit-rf.org).
# GHz S RI R 50.0 
!freq ReS11 ImS11
75.0 -0.7596481708025897 -1.6046991824527785
75.035 -6.482616170076973 -1.7747917506679816
75.07 -3.9382790011413644 -0.3756462332664898
75.105 -2.4718247390198758 -6.469715735555008
75.14 -5.393968678555634 -2.188693528841649
75.175 6.188401685326923 5.489745361052115
75.21 -4.4976127995680955 -6.468877134841849
75.245 0.6902216810865462 -1.287405352920484
75.28 -4.1947785585521205 -6.722734946901479
75.315 -5.210583561914537 -2.522740015207042
75.35 -1.8145473667587784 -5.747252950600931
75.385 -6.052126692336737 -0.42116889569301774
75.42 1.8706109183344146 -5.528198176923324
75.455 3.491057804250275 -0.4405688677957871
75.49 4.861611749329607 2.0431310722416542
75.525 4.9178276482393715 0.30104996483352986
75.56 4.1710501417534545 -1.0500399247355496
75.595 4.625842850427124 4.7479445053314135
75.63 -2.0478307679201437 -6.614581970058783
75.665 5.075459482020021 -1.8021754785948507
75.7 3.432803901042053 -6.639269946262324
75.735 0.6615716356518238 -5.004710070353918
75.77 6.71115727737461 2.0793494761776454
75.805 0.7779460821937727 -3.7052359188934565
75.84 4.606655324907515 -6.205588836853441
75.875 -0.9694373557513194 -0.4000697787172012
75.91 1.6167670852976623 3.9256226029420302
75.945 -0.953830008064328 3.8687033525562162
75.98 5.843289886614917 -4.192372094386945
76.015 -1.3972906466030732 -3.142323430562854
76.05 4.380705714460451 6.328456249755955
76.085 0.19793159893493084 1.6636735446563344
76.12 2.914115994329799 5.271597064989148
76.155 5.57327744019583 -6.783692736877407
76.19 -2.4196186069400554 -0.044984315144888765
76.225 -5.4861597488257035 4.440193166864018
76.26 -3.3173022234889595 -6.57584555970032
76.295 2.0254201411531234 -2.1981188203817803
76.33 -3.576995407824622 -5.770804998778552
76.365 6.594787083726251 4.73308689776825
76.4 -5.502224734854672 5.059597732840924
76.435 -0.7393020552362592 0.6880529645266191
76.47 1.3376505628911124 -5.2121583527434705
76.505 -5.161124075129219 -1.6133415651847758
76.54 -5.50575438885312 -5.5218830382562345
76.575 4.98792018034744 -3.9484877396707105
76.61 0.1548373597357724 -1.1619619797746978
76.645 -3.8052683595040584 -1.2016742605518613
76.68 -0.16153516855533456 -1.4129094900311536
76.715 2.671213961408297 -4.2579337780324735
76.75 -3.384455253154605 1.9254545045630709
76.785 5.130017082111857 -4.88848102504012
76.82 2.4190418274415135 -5.332232869926305
76.855 2.9314789317450054 -4.0556423669804476
76.89 1.1898253827187786 -5.640492270137297
76.925 5.721878745566547 -4.690343233437748
76.96 -4.184524748459191 5.44285797305543
76.995 5.918644468230592 -0.842283049248421
77.03 6.563418583929897 1.9296817385877
77.065 3.895782785130309 -6.310857495086139
77.1 -3.3125674099859177 4.927496011114709
77.135 1.142359765321806 -1.7784024392071527
77.17 0.2079341754901618 -5.962722839553427
77.205 6.071085565674613 2.3454800564442104
77.24 2.4746199045262216 -4.472690803943442
77.275 6.366814969189839 2.2038337204411675
77.31 -0.41796560845444075 -2.235846867256638
77.345 4.316159287313273 -1.7860526409594226
77.38 -5.022989182285246 3.905766778711193
77.415 5.183322869087787 5.448721926974761
77.45 6.5872295888796675 6.607268030672239
77.485 3.4866190075590175 6.63056848145647
77.52 -5.900310971327921 -1.6390279950375672
77.555 -0.7293030302659753 -2.1425156496186464
77.59 -2.177837169867387 3.1828024816356892
77.625 5.064762195361813 6.3314708120106005
77.66 5.387724590401753 0.32692180924659175
77.695 -4.16437177572779 4.375124238958001
77.73 5.443096382292335 0.36411579107939174
77.765 -0.632772776752583 0.40395435918793865
77.8 1.823248876697812 -5.29912583026987
77.835 5.092866853313433 -3.748659199044669
77.87 -6.925088783916031 0.5530726184018557
77.905 4.7891026084958135 -1.3848791656385309
77.94 3.52214758068839 2.071905892284488
77.975 -0.26464288715165907 4.663869994312485
78.01 3.5846644762601914 0.8841402888313079
78.045 4.528458395343779 -4.333171872960649
78.08 4.225397992967041 -0.8429137302996776
78.115 0.6139597318002876 0.9376023833665543
78.15 -3.4365030574206457 0.6123241247806808
78.185 -6.585944970910953 -6.289176472217932
78.22 -1.398392008111681 6.369267617386226
78.255 5.8088218904463265 2.575104607048557
78.29 -5.353555426279504 4.903992132625585
78.325 1.25705101617042 2.221390736112949
78.36 -0.8333768881787449 2.045495161563344
78.395 -1.6398339700333946 -3.0307591499339708
78.43 -3.4644759057979737 1.8909935450706485
78.465 -5.19349723498102 0.007383520766982565
78.5 -4.258436377083335 -2.4838451650719944
78.535 -4.16371298388173 -5.694895659887818
78.57 1.5664456371545241 -1.1877137901069967
78.605 2.0572833064877836 0.9427676511344696
78.64 1.1200579887492834 2.0584997852166347
78.675 5.003428082101198 3.33593303368494
78.71 -5.186602044039473 -1.911256322384139
78.745 3.5463000638969193 -5.096354365214103
78.78 0.5897705558782262 -3.817408294418609
78.815 0.698754786831971 0.5720990169152165
78.85 -6.841027598148177 -5.771121682806019
78.885 -4.9461874397911 5.040755735820712
78.92 2.551059024874188 5.576683116206577
78.955 1.7953686038145173 -6.8070567621663205
78.99 4.8367915173660805 -2.5966016376320997
79.025 -0.20637085166657454 -1.8235953063625228
79.06 3.8715982418561645 -2.7538923073694797
79.095 4.284606823793268 3.826690890342766
79.13 2.962447180686074 1.1079370570934193
79.165 0.8256228293163077 -0.6081146489619493
79.2 5.57668210116463 6.3562473292133514
79.235 5.558237169477877 -1.8865603590332611
79.27 5.90318683738541 1.6055038338423862
79.305 -1.3692939618494562 0.06842377023572555
79.34 -2.256296869848234 5.9741931786249465
79.375 1.2403524069374274 2.85357731201787
79.41 1.9444142488039744 -6.059671881002185
79.445 -2.1412436558313592 -1.4903193404029809
79.48 4.911670872894378 -0.2456783185980398
79.515 3.4591126954565303 -0.8855857186929901
79.55 -3.3866742793005358 6.4552033657434205
79.585 -3.6867138007481928 4.257047653114839
79.62 -4.862334306744259 2.917299921662753
79.655 0.37406607060694363 0.17525212134417112
79.69 -1.8143247598722727 -6.148649583006177
79.725 1.861047292858851 2.347644434786641
79.76 -2.415183642992122 -4.49058183349608
79.795 -5.0606096825469065 1.850274611570847
79.83 -2.821167598336234 5.490196827366414
79.865 3.189506319491195 1.845680532191942
79.9 -3.064202648377772 0.37818531171551495
79.935 3.971063768001817 -4.829665255372296
79.97 6.547446237143942 0.8663344070279075
80.005 -1.0423432343856214 5.155889388935454
80.04 6.172124688197531 -5.979009812758157
80.075 -5.751069132085286 -3.286281362867176
80.11 -5.963514133729659 3.9212482203579317
80.145 -2.355542177796883 2.8950775682109597
80.18 -5.360808825689616 -6.161695899395918
80.215 5.492442034983266 -2.2239221492254577
80.25 -5.184208614314049 -3.327990630363523
80.285 1.6326979894091005 2.5807495965702145
80.32 -3.9316514297938707 -2.514529795400608
80.355 5.773936257363024 3.1495246088860105
80.39 -6.0280525243911836 2.6035338051089676
80.425 -5.651683594121146 -5.969452500870279
80.46 -6.826310283277165 -4.691065754969676
80.495 -1.0809745926075438 -4.842207061102035
80.53 -6.422549229427216 1.060258904489589
80.565 0.44470779495296187 0.5380769295293522
80.6 1.7847005327627825 -3.2794533971830133
80.635 5.305112866191944 -2.7778995311808545
80.67 -1.8075365658051443 -3.5293200359151324
80.705 -2.2606236805530355 -0.7377986801414225
80.74 -5.8686236994443295 -6.084152016449431
80.775 -2.089722241054745 -6.307299107415187
80.81 3.6713155749293653 -0.24013844658446293
80.845 -6.961510459768991 -3.89597914636577
80.88 -4.276851284806739 5.3312101194497625
80.915 5.181885328500444 -1.0250373150822851
80.95 5.6213272744212315 1.3556541519824505
80.985 4.9899586920862475 -2.193878086273313
81.02 2.496433103171591 3.1067999575226892
81.055 -6.795090649729432 -3.43593463623681
81.09 -5.648368407973351 -4.8412888655368755
81.125 -3.141563966265929 -4.171397982286386
81.16 0.5375424557906876 3.1277938334002995
81.195 -4.089654903590189 -4.125756963605982
81.23 1.8523093074208108 -4.612413722680982
81.265 -4.453979148039885 4.470107196940924
81.3 3.6696198758692713 -0.8411606874482043
81.335 -4.9339253784302 1.478572230083076
81.37 -4.768727834626161 -5.121050753501866
81.405 -6.26456313743401 -0.12984159342196433
81.44 -4.594458810325402 1.1582027516451032
81.475 -0.7794050395815473 -4.9286254436678645
81.51 -6.538200468680385 -2.0534791908285257
81.545 1.5633712364460268 -6.171856706453809
81.58 3.918788813874208 -5.94496295181938
81.615 -0.129291432661101 -2.3643945788576977
81.65 -2.2659037383225824 4.1645491464807485
81.685 1.2328988014038755 3.7435864426390157
81.72 -5.683235676208898 0.8403846696038866
81.755 3.556425374840674 -3.3662371573400227
81.79 4.906785386054341 -0.5997310106026565
81.825 -1.722192665069996 6.215310490046785
81.86 3.0189708246794953 6.27387428679573
81.895 -6.878383530487895 -0.7482281962824524
81.93 5.688554995147056 -2.0510312335134824
81.965 -0.7624315678061842 -0.08236302225093617
82.0 -0.49012309513237295 -6.529872792350448
82.035 -4.566657507931858 1.4930602404032223
82.07 -6.492107349747627 0.7432431492373583
82.105 -2.3732419203879997 0.6685309610889778
82.14 6.908947387833672 1.697578141161736
82.175 2.8509131181524747 -3.2628465358683965
82.21 -1.8034278306745029 3.0111296009941695
82.245 2.940938752882681 2.2511697723035575
82.28 6.278976222996065 0.8091107560612312
82.315 -4.925651944749983 3.0247104523521973
82.35 5.334712362117531 -4.919213782446819
82.385 -2.4660036804592247 -3.1651559534686067
82.42 0.0013849964573120488 4.115144686623063
82.455 -0.5139814172013235 -4.636900063293043
82.49 -3.7264670142738128 -1.241291959818719
82.525 -5.058172029392918 -0.49442255674644775
82.56 1.717510300323289 2.0006497176163993
82.595 2.9009908117037426 -4.883664509144537
82.63 -4.42159545152009 6.747863457703764
82.665 -1.1236439832752967 -2.640163049605157
82.7 -3.1735546727129136 6.262083255719125
82.735 -5.020389111229227 -4.738308198867619
82.77 -6.018187528522027 -5.579930029740961
82.805 6.50767791725077 -1.5997448504036036
82.84 0.6722060764020588 3.7369430325027237
82.875 -1.4193054685225965 0.5945992413522043
82.91 1.4704434184730641 -1.2798162259489227
82.945 3.7558963615479266 4.792303305010511
82.98 -4.925037123225554 -0.6124017403535367
83.015 3.2436478116376186 -6.998445922018661
83.05 2.630551256151617 5.8285584787852684
83.085 6.56496823942642 6.448297643851354
83.12 0.3471237792330879 2.1915379327912303
83.155 -6.093329175593576 -2.177038033083747
83.19 3.7712478757836063 3.6481521205161007
83.225 2.1048405692225955 5.39503912005265
83.26 -3.8147495282256014 2.017059901158132
83.295 -5.447080070585261 -4.937610572496785
83.33 5.817949640405814 -6.178617490162757
83.365 -6.570231798152866 -4.371083755413627
83.4 -0.8553291633409326 4.245142091300361
83.435 2.910350129431853 4.875720017196613
83.47 3.3900053742945895 -2.6563927971318835
83.505 -5.7852373494275415 -2.321230576210493
83.54 1.7429458781256375 -2.9038828615291807
83.575 -5.529995695171702 3.408327141660128
83.61 -1.051160737246466 0.6415510713421633
83.645 -3.648113599272298 5.910512530332209
83.68 4.108022389483686 -1.6725706081045475
83.715 -1.0312715272898423 -5.553441882434054
83.75 -5.146587913113512 -4.469430783926853
83.785 4.844382873219246 1.0060560016170177
83.82 -3.554097686418197 5.135188225747362
83.855 4.578454773313955 -1.0598852530211202
83.89 2.041761798490396 -4.481896442411309
83.925 -3.6727645369703286 4.61631122645431
83.96 4.1678252246353535 5.455403335842843
83.995 -6.5476388065262645 -3.78978955163603
84.03 0.2490233990675279 -2.2671835105201157
84.065 -4.098240606590016 5.9488983574394485
84.1 0.8347444056702449 -1.4934920832224925
84.135 -4.856387482627632 6.999804618613662
84.17 -3.201258594189543 4.158144157989535
84.205 -3.8142243478781213 -5.603514542458678
84.24 -3.0245338262577084 -5.093550193274554
84.275 -3.9764803295905753 -3.7979837673439905
84.31 -6.834735047807632 2.7726349943439317
84.345 -4.468815974180275 6.9461163823579195
84.38 5.012458848682826 1.4500428800285374
84.415 -3.412536630193471 -4.55148996668789
84.45 3.128495049816774 2.1148202598938184
84.485 -0.26946455732532226 -4.031378438756607
84.52 -6.260519065480931 2.7642012569444803
84.555 2.27151586667231 0.8808843147846441
84.59 -1.626953129661387 -5.089805905985686
84.625 0.6855311476401311 -4.295678232288517
84.66 -4.3740645114056464 -3.6596195250532855
84.695 -4.144072463483537 5.282459769377127
84.73 2.167466316729925 -6.805447220920929
84.765 2.2635413143732066 1.0693323604360154
84.8 -5.229629448548881 -3.916626547847154
84.835 5.328932513110149 -4.25796487008704
84.87 2.3334936792800383 -3.4593982466038335
84.905 -5.501429510279553 -4.126409622999894
84.94 -3.5369548116192884 2.8071070307747465
84.975 -3.0023445585292476 5.44026919225774
85.01 1.6402843017899007 6.985794684057407
85.045 6.119747295606624 -1.3781012788103304
85.08 -2.335640683354093 -2.4771886627085347
85.115 2.3931024145178377 4.046018693637741
85.15 4.661269370527428 5.3463958171687285
85.185 -3.3616721371213223 4.454981094643046
85.22 6.013340164023802 -2.42437703042222
85.255 -2.0428386489898536 -6.924947022898386
85.29 4.600198594908739 4.406326137949723
85.325 -3.4652108272571547 4.764167190448465
85.36 -1.7616029968109488 -3.5707502833851303
85.395 -0.03184605315682498 -0.8903423969103947
85.43 1.7003243254970029 5.776910226111925
85.465 -0.15014276340562605 -0.6211426303871475
85.5 -1.9036997315103175 -5.128687502248536
85.535 -6.1990812248779985 -3.8689668583648738
85.57 -3.6359008644453867 -4.2378750909139935
85.605 4.5723376416345785 2.7107175873782112
85.64 4.029160181039323 0.1100944302907716
85.675 -1.5108636192129028 3.311965753596402
85.71 -3.169401735512906 6.082961729531959
85.745 0.6122718980531157 -4.046580469330058
85.78 -5.242234115213952 -2.7699519666032177
85.815 -5.324812496959302 -1.921280345705314
85.85 -1.3166191336789022 2.606179395701294
85.885 1.2470536646660895 1.356587223491535
85.92 6.898687684261521 -2.5036952222645805
85.955 -4.127292975374395 0.021032744773909817
85.99 -0.7134276482783746 -6.199456407025647
86.025 -6.191547525270957 5.320528673222976
86.06 3.2767127505267117 1.9902903904831832
86.095 6.872600122733182 5.002323314330714
86.13 -6.754832695619588 -4.751451587029065
86.165 -0.012385103799830821 -0.9645375029776213
86.2 2.733025279998497 2.456234448598644
86.235 -2.0844356691474903 1.9248468751014862
86.27 4.714857925628559 5.8851397684808715
86.305 -6.578530944138003 -0.45442778840956133
86.34 0.4534498656684558 4.768476173203754
86.375 -3.903324624604825 -4.089988722410707
86.41 -0.2938460380901502 4.206046681024616
86.445 2.012698569262279 1.1858817053630406
86.48 4.990201854796702 -1.5328733391295506
86.515 -6.15688653603401 0.36780294304254735
86.55 -3.18334682627088 6.0636165242392766
86.585 -5.957451406600752 6.667823160718049
86.62 -0.9484203638545168 2.4401336676427183
86.655 -6.448251633746091 -4.198489721195269
86.69 1.6721357648299244 6.218879045678218
86.725 2.9765923681252744 -0.04637211500095173
86.76 -1.25706605860714 -3.9067139555507
86.795 -2.833537170981888 -4.750044119305757
86.83 -2.759274183774712 -3.5938960889248093
86.865 -3.522667578861341 -0.18088332176889166
86.9 6.2715049484628596 -3.719399411446136
86.935 3.60073935996519 5.945890616400776
86.97 -6.315534340128976 0.6480506144293576
87.005 5.031082164062582 0.5584955448637792
87.04 6.0823099100629 -5.682446072973333
87.075 1.7088387017781572 5.993678815127542
87.11 2.355296372639053 0.476451999060187
87.145 4.282114289891092 -4.18829383704412
87.18 0.8537602633996231 5.720258245465366
87.215 -5.564538670489568 4.1800864828075195
87.25 1.6842844025905241 5.5943469089511835
87.285 1.286025276233512 -3.4189224575472577
87.32 -0.5004382996769718 -1.3655194877585646
87.355 1.3639202390305303 -0.8018425460863148
87.39 4.918601828381835 6.743155472737271
87.425 0.25575240592703774 -5.827804029285921
87.46 -4.227959992732031 -1.5281705252913231
87.495 0.5062098699674942 5.997164865557911
87.53 4.106183650652511 3.760895388187937
87.565 -3.2499932994400007 2.0411329675049545
87.6 -0.9840218605082525 -4.633836332151653
87.635 6.550626941412452 4.202310730812646
87.67 -6.5965543425472 -6.22681658896788
87.705 0.12239517833386948 6.317984607746581
87.74 -0.23978232994048043 1.7390249952699661
87.775 2.0771199661450237 0.10411954552620983
87.81 -3.5686573827990165 0.07074496467452218
87.845 -6.0259487599513735 -3.177965026189124
87.88 -4.944946382384179 -3.8009594203327377
87.915 -3.7875100495462313 1.2982337889337074
87.95 -1.0053999117135326 -0.17330475571059822
87.985 6.821158407599544 3.0012660025255435
88.02 3.3726211828569648 1.2952584720546305
88.055 -1.6183838173285807 -1.6303200432698544
88.09 1.466706940215475 -6.266899382218279
88.125 3.4734154103660266 3.05914683869634
88.16 -1.2317675447859386 3.251601629221784
88.195 -4.923451576781744 -3.3586088756955315
88.23 -1.6230087182644855 0.4299020103211477
88.265 6.995349268756831 -6.801655111672539
88.3 6.354561577659917 -5.521120104703248
88.335 -0.5187962062969333 -5.926293741599363
88.37 -5.190797608912991 -2.600122435452408
88.405 5.783306688148673 1.6757258843807208
88.44 6.738856318454802 -0.22585309640802032
88.475 -6.884813305279882 -2.7308751981179644
88.51 0.6625301316831143 1.3374905023870687
88.545 -3.8226334945929255 0.3430019626182639
88.58 3.462235049860504 1.8045706375227792
88.615 -3.73429425859091 -5.797424897123875
88.65 -3.4306055035790517 -1.1930871793361606
88.685 6.26742668984802 1.9835946799161697
88.72 6.96528959675106 -2.144849648843554
88.755 2.551794602577022 0.4030317252024982
88.79 2.9164179193803212 -3.97795148641387
88.825 1.1043832742133657 -3.5773003748899224
88.86 6.501261376441832 -1.2652995665060667
88.895 5.970004686855832 -3.7759875897135506
88.93 -4.797576482327097 4.349404818659091
88.965 5.1483877876957695 6.164959334210737
89.0 0.43391475065451757 4.63405118321717
89.035 6.607723411337922 -3.4638943154943034
89.07 5.902080479470051 -6.7405024967854885
89.105 -1.5300032727192396 6.80206039462384
89.14 -4.637777183348534 4.126841663448504
89.175 -6.857234162106277 5.932337646398475
89.21 -3.0020500618261403 -2.5094790560884066
89.245 -4.96627793143008 1.442555364396462
89.28 6.120525157197983 2.1611204283093683
89.315 3.373563407301038 -1.2703741798630714
89.35 6.421673411491444 -6.356625596656238
89.385 -0.417813023703824 -3.761897202994977
89.42 4.262317693748187 6.547766995149931
89.455 2.641501941345985 -4.797509475708212
89.49 1.1677495756057559 -0.7195633805997483
89.525 2.6490757502276456 -3.2850781289654867
89.56 -2.76498753246122 1.349234566508305
89.595 -4.371124868360944 -3.905809840146372
89.63 -0.1592352695139727 0.11732510198592183
89.665 2.113945958630709 -0.685498310336462
89.7 -5.677554281662305 6.4290453295838885
89.735 1.908871065379613 -3.7828185389458033
89.77 -5.5609072314345855 -2.8783667578080876
89.805 4.570117052131234 2.1064865474602357
89.84 1.2938555773065965 -2.458523380781083
89.875 5.16202924234095 2.83254141722462
89.91 3.395788115766721 3.999206166254118
89.945 1.9046458060465985 -2.2438607270278705
89.98 4.766470551792741 -5.918090224975011
90.015 3.2330993916535666 -2.8855304998986058
90.05 6.6353271638543845 6.3615281545192754
90.085 5.9670363460388645 3.623993527379577
90.12 1.9328274193744008 2.042031593779816
90.155 -1.6447947801914018 2.325518503506077
90.19 1.5620255294371002 0.7220797364972964
90.225 -6.964938984545847 -6.2172068269796625
90.26 -4.367312921727114 -2.035943363818281
90.295 4.176867468815176 2.144130668905779
90.33 4.267471683244004 -4.7892584326982615
90.365 -5.77755452323137 -6.220654400946193
90.4 2.4934138065046905 0.6331265343597072
90.435 6.6016025612414655 2.961063975075934
90.47 1.3802257949717271 -6.197021814222053
90.505 -3.134671396345586 -5.783816363786039
90.54 -2.4874914264248082 3.299924096218661
90.575 -4.444017758792417 -4.193205741458415
90.61 -6.380487708268278 -1.5790276242269987
90.645 -3.9948728822807653 0.021027110719531672
