! Created with skrf (http://scikit-rf.org).
# GHz S RI R 50.0 
!freq ReS11 ImS11
75.0 0.556838795014833 -1.6708099405264076
75.035 -1.4310100722982044 1.9827595257226371
75.07 -1.3516532935289498 -0.003774645779640373
75.105 1.354236922215402 1.5206945756782564
75.14 1.1953742773753393 1.428210977592021
75.175 -1.626502103359627 1.2181535663951175
75.21 -0.3826214239800372 1.338878935405877
75.245 0.2008179522949054 -1.4144706249979193
75.28 -0.5899352416870407 1.4591219260319503
75.315 -0.7148737792838777 1.6721010253714637
75.35 -0.49312667642585106 1.278110543861012
75.385 -1.0279191713408253 -1.2184872717181618
75.42 -0.059927974480349366 -1.3907067633316172
75.455 -0.29922720820391513 1.3869963412144557
75.49 -0.08695487397337809 1.1978347556831896
75.525 -0.40537090372736184 -1.0737208358657986
75.56 0.5868298894749207 0.44821738690794044
75.595 1.7506911873988793 0.06780504091488382
75.63 -1.1419444495796442 0.3437400343291368
75.665 -0.8713224668524413 1.2962457326137478
75.7 1.3523971237020875 -1.6585059476466233
75.735 -0.44456015336056565 0.5008461909982054
75.77 -0.5271368075758436 0.8493414610967802
75.805 -0.42847746414951304 1.146498284896528
75.84 -1.135353914150544 -1.1926589398015097
75.875 1.5447076870874978 0.8127302676980368
75.91 -1.382380356667038 -0.5376566670119796
75.945 -1.4461210575831283 1.3618976470598803
75.98 0.9499764656412997 1.3395555652718256
76.015 0.5867388310739736 1.0907943386489096
76.05 1.0566660358107867 1.8069669897545215
76.085 0.703475475819769 -1.6343090694455484
76.12 -1.9869359699042022 0.3609188110501633
76.155 0.08655248630522072 0.2203275611696487
76.19 1.4918462710239404 -1.8815965147315903
76.225 -1.9444919106094654 0.1002050928267324
76.26 1.0121465890914347 -0.01372688717681525
76.295 1.091899926265306 0.8901049725330248
76.33 1.5022775914785722 1.2840740437902998
76.365 -0.500872023702748 -0.4853420892285225
76.4 -1.8789173749762478 -1.964665836187835
76.435 0.9727251822460103 0.7716369885394863
76.47 -1.8774794823209753 -1.3380405118266294
76.505 -1.5861309703578987 0.11077437741709062
76.54 -1.638204990978679 -0.26295498101928816
76.575 0.24233014113191853 -0.4717245726234558
76.61 -1.554630766704888 -0.4564267032977507
76.645 1.0005228367520296 1.271157246738619
76.68 -0.5476109273757754 -0.03638663774024353
76.715 -1.6323592390550177 -0.715123618566738
76.75 0.5329650965283519 -1.7423785581815912
76.785 1.049226957194636 0.8044961673986339
76.82 0.660875437093686 -0.6935397098957421
76.855 -0.16085027624611437 -1.830419858426128
76.89 -1.508730647753962 -0.8270023091660779
76.925 -1.1928672556539177 0.4384385078283817
76.96 -0.7225968488579206 -1.3848543412436785
76.995 1.5191485853286957 -0.3071706156220846
77.03 -0.30860812315951236 1.121454524082647
77.065 -0.7426505387155871 0.8419444464760502
77.1 1.752004317108156 1.3742883421702379
77.135 1.5187836049628545 -1.8585415637090317
77.17 -1.8233463587269818 1.9072641238253527
77.205 -0.4184910523696992 -1.2786714877284435
77.24 -0.7638413721536703 -1.122804568239074
77.275 1.9429688349569796 -0.6776664508607504
77.31 1.3287548508066833 -0.7800084026595706
77.345 -1.4485011787885416 -0.9187171541358015
77.38 -1.6474960472091724 -1.6292143350249617
77.415 -1.6471549346087788 1.2717443908554888
77.45 1.969108969455604 1.0172923811295997
77.485 -0.3568082043558638 -0.5147287948914534
77.52 -0.661392633452019 0.2906993572070493
77.555 -0.9313801751944188 -1.286370601359211
77.59 -1.2816045081217364 0.3648921341996494
77.625 -0.8292561277174264 1.225713881990226
77.66 1.1423152215186372 1.2020201850485859
77.695 -0.5823909946638808 0.8552894549542733
77.73 1.2121183666281898 -0.44858518940545977
77.765 0.9951434268990043 0.44682284174726083
77.8 1.2091276596640963 -1.4028471670629714
77.835 -0.3483244884363401 -1.4380527769213454
77.87 -1.5839437538863503 1.719550193879551
77.905 -1.2163596468699156 0.35511420991870324
77.94 -0.5524074204086173 1.5279757539024623
77.975 0.7576876293527302 0.474249869394999
78.01 -0.16963431889534863 -0.4078428023694185
78.045 1.7249343794568572 0.6366479087345387
78.08 -1.7308119914436104 0.33736087529276837
78.115 0.7187363692717184 -0.06747940738935432
78.15 0.6599030107676969 1.6824273154725362
78.185 1.223689885716059 1.7586466345001366
78.22 0.26004335641038434 1.0462790558964965
78.255 1.3399388372062186 0.2819603569867897
78.29 1.889561437804776 -1.009159952399969
78.325 1.90341495967004 1.5364096072541935
78.36 1.7919693633023575 1.9701153854088655
78.395 -1.7744840992795998 -0.1751208704137852
78.43 -0.5051773889168008 1.8177476101484902
78.465 1.0543065124426563 -0.6550042394596716
78.5 0.5123376881643136 1.3591568970791585
78.535 -1.4876152525184425 -0.5652940725928497
78.57 -0.3345542330151954 -0.8358238455617415
78.605 0.12666677490949363 0.02735845431595063
78.64 -0.9769486044001123 -1.8422519972343432
78.675 0.6490786773940225 -0.8235226021389073
78.71 1.8579215696301015 -1.4931750909569232
78.745 -1.6108042654969483 0.6843448489617345
78.78 -0.4407357813431094 -0.6757582039183387
78.815 -0.1283568810759479 -1.5556811195154703
78.85 -0.5470459672090007 -1.6802751982858468
78.885 -0.7278902063796928 1.057641572199869
78.92 0.1490689846757638 0.8815244617416771
78.955 -0.42507433774099246 1.8288554582481242
78.99 0.1324475337725617 -1.595451468919284
79.025 1.7548640412120284 -0.5424815204714406
79.06 -1.2255831973374245 1.203617600323824
79.095 1.4946346626971163 -0.5767154559375047
79.13 -0.043542652759936296 0.8059251909739422
79.165 -1.121898338238117 0.05690728161566749
79.2 0.13151737315948564 0.2036403872623147
79.235 1.8448450571602675 -1.7319404231924942
79.27 -1.2745660047985692 -0.7036742664574307
79.305 0.4761743642946814 1.1489486752203644
79.34 -1.427783402145662 -0.602571420548133
79.375 -0.41304889635820485 0.8866296462993275
79.41 1.7903701823394536 -1.5513387832958743
79.445 -0.15050384966995844 -0.7968863199400351
79.48 0.8239030438212267 0.7527939035379942
79.515 -0.8105683718752426 -1.3945560832938138
79.55 -1.5390867233315841 -1.6493458080512786
79.585 1.9676244008773809 0.6806766934869879
79.62 1.0530006897896165 0.4121371324912171
79.655 -1.034867909875011 -0.8009232332521083
79.69 -1.529130468817261 0.8599742996112871
79.725 1.7571243980362525 -1.3526764219070686
79.76 -1.8907579345515262 1.0801037558025577
79.795 0.07340680719296167 0.5043599154737781
79.83 -0.05119814148343016 -1.4401999993526031
79.865 -1.3498319366131661 -0.7367083423055512
79.9 1.0404148282126342 1.8994394832202297
79.935 1.485326985848785 -0.5939401730528235
79.97 1.7122355249590306 1.8842592358415247
80.005 0.3846868803368717 1.3545592445319898
80.04 -0.7280952038334187 -1.6013267787508414
80.075 1.197501053633054 1.856181756072007
80.11 -1.4342723094391499 -0.7986871696684115
80.145 0.4560651658394579 -0.880858079306241
80.18 -0.04947016834533002 -1.9461075580731166
80.215 1.4912347574610982 1.8281714923622934
80.25 0.6722115265906146 -0.6094208960775518
80.285 -1.921079810694144 0.6391697407412567
80.32 -0.23019771168169223 -1.2101450982816568
80.355 0.2379364581904122 -0.49739735336037993
80.39 0.10826308045746247 0.8389973095126471
80.425 0.7251380104069178 1.5398365938503655
80.46 -1.5953091093702594 1.888746214283259
80.495 0.9046959796180505 -1.1595762166767627
80.53 -1.2775909888295764 -0.12128352707875178
80.565 1.7698841358992516 -1.289946914030542
80.6 -0.3854176086662555 -1.5574251596465758
80.635 -0.42536903674778737 1.8462189172048724
80.67 -1.324826477421054 -0.3367810886572449
80.705 1.5169501597117874 1.8020292353273497
80.74 -1.6206507038320135 -1.6345679656999783
80.775 1.2840777515988 -0.7061821980007008
80.81 -1.208244138564107 1.1406503840314857
80.845 -1.9965764313219294 0.7277499895507233
80.88 -0.5216679924737666 -0.4050919050341544
80.915 -1.7616930095706582 -0.8461840587696585
80.95 -0.9063533715679859 -0.7890548429304722
80.985 1.2922132156565724 0.2959023375953911
81.02 -0.619774192176552 0.32203594332833463
81.055 -0.11266307908482975 -0.051330753267177176
81.09 -0.07656693848059914 -0.5418090920767624
81.125 0.3842485640187574 -1.5055074084027136
81.16 0.924556605918446 0.4432096409902653
81.195 -1.247019873531141 1.9967360005834642
81.23 1.9832847988691138 0.4289241245032738
81.265 1.44796830460123 0.014879657194882157
81.3 1.719900908768489 0.9172607840759199
81.335 -0.996692993670016 0.4966172153397439
81.37 -0.6694476986908309 -1.122734501057391
81.405 1.310614061010249 -0.8795037671704189
81.44 -0.9532905171180022 -1.8377887510365323
81.475 1.2431994105170254 0.9271387099487125
81.51 -1.7879903352680468 1.8817347613405433
81.545 0.702995082883902 1.7041767575634688
81.58 -1.517570815133383 -0.3616880036480543
81.615 -0.6537843486856745 -1.8400388347297185
81.65 1.7241667165021184 -0.9639394022623646
81.685 1.2078095291148085 -1.2068310931709503
81.72 -0.9139773854759206 0.986991152401242
81.755 -0.12566082266111955 -0.6057851198314248
81.79 -1.7902011055308638 0.9197751191367183
81.825 -1.0362115274496206 0.46518566946053985
81.86 -0.014225954077644154 -0.5282857317804597
81.895 -1.7266804148919315 -0.6893063941271098
81.93 -0.12746661582156138 -1.452422743331673
81.965 0.9824884041706565 1.4374478560669135
82.0 -0.8774208893234352 0.22082191052143374
82.035 0.7632739262670198 -1.5080575341735174
82.07 0.6828347517147426 -0.32734255437500526
82.105 -0.8798783829296881 -0.3228700785687999
82.14 0.5200582152369937 1.274977168730325
82.175 1.2512416664174904 -0.5292624825698224
82.21 1.7169979537499769 0.20317322398933024
82.245 1.0820410600701944 -1.2971740894898005
82.28 -1.3597060308215894 0.7036840992246893
82.315 -0.4457876969005037 -0.3628252982519151
82.35 1.0820960708724559 1.5747608672968139
82.385 -1.7578711591353104 0.4704183506825488
82.42 -1.4352019072876736 1.7028074565095328
82.455 -1.1340913198851692 -1.4577230023105194
82.49 -0.05378754454235768 -1.2746456996843087
82.525 -1.77440268261868 -0.33383507324053774
82.56 -1.595079922194461 0.6981907007258883
82.595 1.100637036645435 -1.8072556475212007
82.63 0.24445769282665708 -1.4729522504210801
82.665 0.03013423883784272 1.5903988067389947
82.7 1.275190919638987 0.8322355350447634
82.735 1.8049420218966326 0.22898326714159545
82.77 -1.0174101160345064 0.5185841080602644
82.805 0.7104067140212864 0.21929629803543405
82.84 0.4108666627211197 0.9636472083969632
82.875 -0.4654159807945284 0.016053909759273566
82.91 1.6556454580478022 -0.6881703449472494
82.945 0.42149689849028915 1.8282232732539807
82.98 -0.9641251954387 0.467891261395728
83.015 -0.6634412501222133 -1.9266215937827904
83.05 -1.6259186655811413 0.3477210808039066
83.085 -0.7109424461375204 0.9543086028593208
83.12 0.47669955421468035 -1.869215508230083
83.155 -0.6153989631691585 1.5196363397441064
83.19 -0.464569390173184 -1.3644452126020838
83.225 -0.6200765141647442 1.4595457991217553
83.26 -1.1306413331795513 -0.3635526398342841
83.295 -0.5101551712143264 -1.6006936237558174
83.33 0.279266850427506 -0.5425093975042707
83.365 -1.5138306620829178 -0.44922441371324995
83.4 -1.1834621659087285 -0.41386626279062755
83.435 1.1739716406662581 -0.13163997430827168
83.47 0.519038685211108 -0.5859147090156678
83.505 0.6631343768398352 0.7336059089725842
83.54 0.19215356010934315 0.026342929819181737
83.575 -0.13519261254999826 0.5970171612600867
83.61 1.6831726349839706 -0.014456760193871876
83.645 -1.9674736142842288 0.8039889815697951
83.68 1.589111335875676 -0.24971733520249417
83.715 1.3805057036363904 -0.053883144667564054
83.75 1.092910913964876 -0.2686760688173413
83.785 -0.6247575121203179 -0.02523096693005389
83.82 0.37837554726422207 -0.07292708827428696
83.855 0.8981304429323824 -1.3865444557322832
83.89 0.533896978887713 -0.6215312687151022
83.925 1.1113631241458002 1.2905124998739996
83.96 -0.6123957742415063 1.1966630184612312
83.995 1.0621212116437668 -1.03867889246603
84.03 -1.020783792410195 1.1442556478257537
84.065 0.7755513098962474 1.3169877583907765
84.1 -0.3347728719756855 1.9358096876141726
84.135 -1.3517711647220487 -0.38908663556223244
84.17 1.4836395406601328 -0.8929586460244652
84.205 0.21114277361147193 -1.2443138225827393
84.24 -0.7242013510715175 -0.4711314238902191
84.275 0.37262354180646007 -1.3569519575498075
84.31 1.7961208252040741 -0.9174940674406575
84.345 -0.5434147098200821 0.2867121901234766
84.38 -0.9348966925219147 0.33439813006732955
84.415 0.08223972316212436 -0.10480649514890406
84.45 -0.8935558252469105 -1.9726619301332553
84.485 1.166231307123533 -1.365368725426141
84.52 1.0117640156073229 -1.1600220776228296
84.555 -1.508995375445687 -1.4450799982150184
84.59 -0.05427632397130333 -1.6543795333844504
84.625 1.1780985521190064 -0.2678051628226217
84.66 1.3151129465292555 -0.9387175086747588
84.695 -0.02821722561404716 -1.8478515953676942
84.73 -1.507188885016212 -0.9188623271114631
84.765 1.9580774098368239 -1.8376900183985247
84.8 1.7513772108513024 -0.7692625666357951
84.835 0.3535257966171863 0.4965263945942904
84.87 -0.022606756687352014 0.022047024408847093
84.905 -1.3774245916989867 -1.5175255674518198
84.94 -1.1403509905915663 -0.24032883243977654
84.975 -1.1322257786693015 0.8502103630942011
85.01 -0.27463683374765013 -0.7216049206012762
85.045 -1.12952511333875 1.916794968620926
85.08 1.4766259343825325 -1.9245764486608996
85.115 0.8409695641199337 0.9757015536751861
85.15 -0.807112486323724 -1.7652813992390608
85.185 0.7573849223268772 -1.7158607480227066
85.22 -0.23024855405528388 -1.6423076860136492
85.255 0.4722719937240001 -1.2429945219862373
85.29 -0.7913836881848946 -0.21764845005346922
85.325 -1.857981884102871 -0.8204014977648781
85.36 -0.004743266136950641 -1.4010731802047025
85.395 -0.490834203928165 1.4296743279792619
85.43 0.5793664200488138 -0.9686635392365375
85.465 -0.5732695483532839 -1.7335837920951236
85.5 -1.9358129277808511 -1.7472918496710865
85.535 0.864852950162601 0.9971359976845355
85.57 1.331015809764874 -1.4364266456122814
85.605 -0.44331409041228076 -1.2300737012197582
85.64 -0.19069546850836439 -1.3367097182730499
85.675 0.9348662800027281 0.3761315565893164
85.71 0.9200256274761975 -1.2068206255123801
85.745 0.005914479312406851 1.674863864607914
85.78 -1.623801409992848 -0.743726869123893
85.815 -0.36465887659644824 0.10715031611813464
85.85 1.0931402811726074 -1.8234699086695634
85.885 -1.6176966742912335 -1.7484809180963659
85.92 -1.6198803704335347 0.6869717165029887
85.955 0.49335533773996376 0.5718746929129472
85.99 0.14017916284029708 0.3267350248203149
86.025 -1.672641539950627 -1.4463405991109197
86.06 1.0400734174109059 -1.8009499066398909
86.095 1.6045520168882317 1.5235452262239457
86.13 0.8079900660655261 1.0398055106127435
86.165 0.28484681131486456 0.8141376398519449
86.2 -1.1471059802949664 0.08602329524354246
86.235 1.271603986045724 -1.944466131632213
86.27 1.00058601349392 -0.2700495101275062
86.305 -0.06399670030668947 0.6640725304404489
86.34 -1.9392329106976787 -1.507578644069243
86.375 0.7752323516309763 1.0347435357663404
86.41 -0.20796933804057316 1.4341058943751004
86.445 -1.4866185098173412 1.86467021273153
86.48 0.4621898983567263 -0.9777272393686971
86.515 -0.7734034990542837 -1.7771751674360634
86.55 1.6820993740897285 1.9371416377944919
86.585 0.5701708592783685 -0.7727976474499427
86.62 1.8634884847403632 -1.2794780732370943
86.655 0.10181199088880666 -1.5606349437849492
86.69 1.9881096931090991 0.5465311721116506
86.725 -0.42264222135238727 1.5959076765877254
86.76 -1.7629015729544868 1.339712734700596
86.795 -1.7401944800712887 1.5277093779233284
86.83 -1.381117339064522 0.828181150533136
86.865 -0.416363156517646 1.4014964732182311
86.9 1.4545009714644994 0.19660302309756394
86.935 -0.15078646527896078 -0.36424063743942847
86.97 -1.553104114952335 0.1900370998423475
87.005 -1.3402125242703948 1.9490310363679462
87.04 -1.710547166758257 -1.4554398226874286
87.075 0.5051549761340466 -0.3184042050657996
87.11 -0.9659926388983884 -1.2255211972509699
87.145 -0.0905837792202373 -1.2703538911597487
87.18 -0.8996130242222198 0.1401154758466978
87.215 1.1237769204806765 -1.0282118954987451
87.25 0.7992660706238777 -0.6711397884895516
87.285 1.1887176809937272 0.3975173945189092
87.32 1.3057459883945706 0.6051336156073157
87.355 1.5680099377552899 0.7677169337433543
87.39 -1.8695597376285038 -1.49751946126367
87.425 1.541377972017837 -1.728151844118015
87.46 0.6125849180356799 0.17379913168722716
87.495 1.444324440996013 -1.0170370891422045
87.53 -0.04979804880643801 -0.205348408448911
87.565 1.6937661961363863 1.9385949265985611
87.6 1.1085414116713115 -0.5126235597173396
87.635 0.2894659888170179 0.601553411547306
87.67 1.5684364829157582 -1.1420605549535074
87.705 1.064789595606661 -0.4362497706731636
87.74 1.6187058874546167 1.3418892193212857
87.775 -1.9980792351078307 0.3839173833537455
87.81 0.6119091711912419 1.7133319011718435
87.845 1.7544709192039134 0.66310105186087
87.88 1.3402646677224253 -1.1218919039444222
87.915 0.31472067508270607 0.5274394663518724
87.95 0.3410090534158656 -0.24640902324883385
87.985 0.8868102315294437 1.9975357995875793
88.02 -0.5939405269139644 1.3015467280721151
88.055 -1.0478336748787074 -0.2568231021640912
88.09 -1.8839091930150933 -1.6030204765345726
88.125 -1.3288878976410747 -0.28644048530436095
88.16 1.8841799368377732 -0.4579734214253044
88.195 0.26544562547152895 1.8206864682221275
88.23 0.3491906325728533 -1.9540581185737258
88.265 -0.3951332804215206 0.7113773509116288
88.3 -0.8079161291457679 1.093699649488364
88.335 1.1655262612620372 -0.8628414398837441
88.37 -0.6152022320290724 -0.9858285011156291
88.405 -1.8083829603206878 -1.0507439479093592
88.44 0.3632877586255714 -1.2270852798524685
88.475 0.01849688406531147 1.8789173383018398
88.51 0.5706673134877875 -1.841701535751044
88.545 -1.8089195987689615 -1.2949382338873474
88.58 -1.977641467006753 -0.17390706085346563
88.615 0.00017611040793097388 -1.8095251654931475
88.65 -0.5809799643241371 0.2940304957800355
88.685 1.6238142915547789 -0.874370953358087
88.72 0.03135073570539948 1.9028192947870837
88.755 -1.1399064513127675 -0.4897585861481222
88.79 0.4677060389027856 1.2516375012454626
88.825 1.7222902475541702 0.9658285378748444
88.86 0.07915166322014677 1.9221801762946602
88.895 0.11845456139076793 -0.5742615090993173
88.93 -0.7429015599864095 1.2506892648782655
88.965 -1.5299490107729983 -0.18514800558336697
89.0 -1.3236925029883153 1.0952913416710985
89.035 -1.1314627044360153 -1.7295405299418736
89.07 0.6819885230531542 -1.5006077638302098
89.105 1.1105317329178184 -0.9052396224526049
89.14 0.6889974887840138 0.8954336380674244
89.175 1.0928081483773049 1.2554509542834413
89.21 1.6233669895623573 1.8240068347813998
89.245 -1.4179356911207774 -0.34056088671308116
89.28 0.42316279499968656 -0.03657649850168099
89.315 -1.9791535118578438 -1.678206922432243
89.35 -1.8713871542008689 -1.1348918606196325
89.385 1.2488552041785628 1.8979930208173608
89.42 0.24799672657225136 0.9973198674718544
89.455 1.6841275447143609 1.224018150508238
89.49 0.2138307705701945 -1.3398414734486757
89.525 -1.1974764539896712 -0.7672103562587824
89.56 -1.0770341637229053 -1.152878543168542
89.595 0.28733192106262884 1.9211446115965516
89.63 -0.585354694814443 -0.411249497098527
89.665 -0.3271474732565105 0.1204887477042309
89.7 0.8919752889355226 0.42528679235701317
89.735 1.4485172468041583 -1.8763282499748688
89.77 -1.120251349071753 1.1537554130473398
89.805 0.27849238276813404 -1.5416734614693293
89.84 0.0955697126402355 -1.2293524110502956
89.875 -0.6220921797827788 1.0922392403578258
89.91 -0.6697298716295106 0.016730078897126077
89.945 -0.617895888570128 0.4540329196225268
89.98 -0.1716841960002724 -0.2195041214323461
90.015 -1.11089269247854 -1.4440002590891932
90.05 -0.4875964903961134 0.19728882478784104
90.085 -0.2695439157932813 0.6824499236186861
90.12 -0.48573967976835286 -1.8561862630841137
90.155 -0.5361176384264805 1.9302119041136465
90.19 -1.0402502260749578 -1.1641801743233335
90.225 -0.9142922790080634 0.18522565784823453
90.26 0.12750436803946164 -0.38660727186913135
