! Created with skrf (http://scikit-rf.org).
# GHz S RI R 50.0 
!freq ReS11 ImS11
75.0 2.647390763104553 0.18739315185633187
75.035 1.471826703488327 -0.8768787770799533
75.07 2.3454374763528536 -2.558329934673652
75.105 -0.5675331400453327 1.8384693908641554
75.14 -0.4265716735478591 1.7626295061377701
75.175 2.2718266022163256 2.619677469876371
75.21 -2.1935736298467177 0.06283756284976305
75.245 2.252432363189074 -0.11473485727762167
75.28 2.0907146032813304 -1.0359236172829684
75.315 -2.0819871250151607 -0.10645653279141043
75.35 1.5207641862257801 1.3743537915756983
75.385 1.353107160576887 -0.20429568275088994
75.42 -2.156767268994548 0.6335317855459894
75.455 -1.9955960114979208 1.402966427740902
75.49 2.3706675746203656 -2.9460931762056246
75.525 -1.6619920415172993 0.7109282903031438
75.56 1.5183014488316473 -0.4159639001784907
75.595 -0.8863954541956793 2.510308782244762
75.63 1.2534319784730001 1.477770440202634
75.665 1.044777107424387 -0.8234070312442967
75.7 -2.9492398219610303 -1.470647316039852
75.735 0.2888714495195157 -2.2520741503400368
75.77 -2.3999501170292628 -0.6021455069026944
75.805 2.096755494694697 2.790161684675061
75.84 -1.2925313886710785 1.2244937647494825
75.875 1.5508388143108138 2.846849230212774
75.91 2.318036949615429 2.0387290127976385
75.945 2.0348214564905263 -2.2974517288294747
75.98 2.373253455205045 -2.335423493514326
76.015 -2.499707325876706 -0.01199473470275847
76.05 1.9834369531656069 1.9738855487591318
76.085 -2.614219367881641 2.628411630048103
76.12 -0.427619310781185 -0.5867232710497206
76.155 2.5450829009573837 1.9321919680105608
76.19 2.3055350181965935 1.6264272859121285
76.225 -1.27024728982582 2.406341689744937
76.26 -0.687137207902135 -0.5543820160930593
76.295 2.452528421058447 0.7330977298461256
76.33 -0.47789396715526755 0.48700311096240667
76.365 -0.5493086634704012 -2.818201310017611
76.4 -2.031112009419588 0.4105362322920094
76.435 -0.6931230421830985 -2.153973930788183
76.47 0.20078627457923925 -2.176694836179627
76.505 -2.570429329750688 2.3888683710619274
76.54 1.3507630267325754 2.7028479443912277
76.575 -2.577489937855117 2.4129166223738427
76.61 -1.9482210858783513 1.9895155473637705
76.645 2.5677633050753568 0.6671311165664173
76.68 2.9006527232249377 -0.5913512566382966
76.715 -2.135961763290619 -0.11524983106040332
76.75 -0.5401451072380945 -0.6570952436764812
76.785 -1.9254440481094257 0.7813382730425824
76.82 1.5547119116216517 2.893044821167125
76.855 -2.9046039955482987 -1.5105831435043722
76.89 -1.9104383997279042 2.0869592457087203
76.925 -1.0500046547988766 1.075042009200324
76.96 -0.7527667324675036 2.048644763084666
76.995 2.3446106783668927 -1.0705201957748804
77.03 -2.560566735574227 2.3306962865182914
77.065 2.0288331877438535 2.2529857380567986
77.1 -1.8041337216784807 0.046188531738647676
77.135 -0.3774149994143703 -2.444896182640205
77.17 -2.8425867751629226 -0.07260300560320898
77.205 -1.8538762186701376 -0.5192135470849253
77.24 -0.29193695668623176 2.010643369524704
77.275 0.39621497271100203 -2.288993206507902
77.31 1.642514058825562 -1.5017831567974105
77.345 -0.5783383188971669 0.9753147757503204
77.38 0.17600380210719035 1.4745473414797012
77.415 0.7160113242306476 -2.152850378231436
77.45 -1.8805679034240237 1.338268870933817
77.485 2.9258458466241986 0.10088934884423417
77.52 1.7919334789399082 -0.6197900071006963
77.555 0.6195436389817492 1.6381220673742793
77.59 1.775329363841041 -2.851558099570614
77.625 0.274628130807284 -2.2901258536350997
77.66 -2.321656326613418 -2.572345440000775
77.695 -2.080832135399591 -1.0487434734712926
77.73 0.9056787541098243 0.5577061146500881
77.765 2.531521868716482 1.6890058047489447
77.8 -1.9117263072941897 -0.3755179011651988
77.835 0.15437310362528822 0.023504979292550354
77.87 0.11813734687433275 2.7528816940529337
77.905 1.377291908646986 0.7467691525390068
77.94 0.47134321506065 1.5084644475838713
77.975 -2.7079552128083177 -1.883808011086027
78.01 -1.9585108779888032 0.19716550040016068
78.045 1.0259618529235313 2.639221096628136
78.08 2.0554807910886033 -0.24510025161635207
78.115 -2.0584841892112795 -1.8859850731829597
78.15 2.992347185859142 -1.9877180523928781
78.185 -0.8609511935589818 -2.9396190807593126
78.22 2.7067363029585527 -2.871823814257311
78.255 0.23045937787145632 2.6898680558056034
78.29 -0.0034081725943548857 0.6337624492640674
78.325 -0.9730387896954484 -2.1935425747250736
78.36 2.2990584499114197 2.3187810969125353
78.395 2.4959363422589007 -1.581775144700669
78.43 1.3805091086471637 0.2817463650859502
78.465 2.0305906701659535 -2.976997510859645
78.5 -1.8477695629924054 -0.043117740733183085
78.535 -1.9253071314532384 -2.262524367702251
78.57 -1.0782186671923544 2.701933067099601
78.605 -0.48136477028606284 2.52233929395471
78.64 1.4801806459497577 -0.9585035252122558
78.675 -1.4969140027625485 1.7801655698335952
78.71 -0.8216964806062077 -1.0780974969352217
78.745 -0.5670509343111156 2.573602647353766
78.78 2.236468524675203 1.4934850730555975
78.815 0.8382391766878015 1.5189024027894373
78.85 -1.2894580039198784 -2.0582875829845877
78.885 -2.1419125684839866 2.269172518065674
78.92 -2.5572937122982626 -1.507761111280665
78.955 -0.6096796648419294 2.8494038137030313
78.99 0.3564239312703481 2.481939307395132
79.025 1.477759750452245 -0.5862049867065944
79.06 2.182004643979189 -0.2352470117138845
79.095 -0.14694966766189377 -2.8508026948884475
79.13 2.23089138038032 1.4846775097852152
79.165 -2.7209007686402646 -2.2812366581649175
79.2 2.7412397208016968 1.4897828247064724
79.235 -0.44464523924987986 2.02284674094177
79.27 -0.36979634031360265 0.39602564557297226
79.305 -0.7124867756803042 -1.1702833122906766
79.34 -0.02636893476384028 -1.9687402857511314
79.375 -1.50858141440841 -1.5913687233747975
79.41 1.4982298224656305 2.9815338256376194
79.445 0.05309150932328843 -1.7132492025762471
79.48 1.229558969951846 -1.060524532413569
79.515 2.1393511830451075 -1.340265223096973
79.55 0.6334535159805132 -2.2799163108517253
79.585 1.8608397819877562 -0.6362398965684581
79.62 1.7870752414924616 -2.1273496589921446
79.655 -1.1706119314175902 -2.8376128845247806
79.69 0.7306108839820864 -2.9791931143280026
79.725 -0.550784915070248 2.72021557559732
79.76 1.099926456130182 -2.693088443683904
79.795 -0.5520727922762012 1.4190920790326695
79.83 0.28587330142223055 1.5799097415979455
79.865 -1.1800731460226028 -0.7705527302529824
79.9 1.2423898799319988 -2.0543238258068097
79.935 -0.977845764423465 1.9747592528745839
79.97 -1.1713017566988386 1.014992715065809
80.005 -1.5964514474010574 0.11832791057120251
80.04 2.084824807560695 -0.40131163088238364
80.075 1.6050916048299613 2.5115334359135693
80.11 1.725422456068709 1.3140418682385413
80.145 -0.1645202239245116 -0.8800030797708354
80.18 2.1081765237546466 -1.9109131266346246
80.215 -2.804359185816332 -1.0407675123392903
80.25 1.0855677658797453 -2.211355385166073
80.285 -0.4714549940712789 -1.7554675282128187
80.32 1.6041326025656197 2.706295060828103
80.355 1.5205400828799882 1.5712825083519142
80.39 0.7664949342730936 1.7482790260713161
80.425 2.50768773450752 -1.0437166176935835
80.46 2.0528977867559073 -1.3118337740384607
80.495 1.7289317778263864 -2.06262477657267
80.53 -2.9119190153851564 2.5900010426834155
80.565 -2.388615428150475 -2.6574027315201088
80.6 2.460149300045786 1.2319499098076703
80.635 0.6091882854098343 0.8913710211244099
80.67 -0.46995279106125665 0.15805639512938963
80.705 -0.22825120709180968 0.41880199586084177
80.74 0.7361455584304377 -0.6700894111662943
80.775 -0.7024463829883627 1.7904685639052453
80.81 -0.33709178187328503 -0.00971295866213695
80.845 -2.3531116234064884 1.2150643585144245
80.88 -1.974843327656754 1.7366451010984545
80.915 -1.786566234275584 2.393171861675639
80.95 2.2130111518769064 1.1733804245781931
80.985 -0.5651056314182814 2.149962962103383
81.02 -2.11554810457966 0.3892983869882043
81.055 0.28559312769826817 2.450620511136628
81.09 -2.0654527625399095 -0.01074599604641513
81.125 -2.4488421093118378 0.894781430502495
81.16 0.46331118917355596 1.921776056027943
81.195 0.6115032221898609 2.8149359499704603
81.23 0.4460253284668194 -0.6798992044577457
81.265 -2.742435019097501 0.22711278212914143
81.3 0.16253392252343168 -1.1143010206006978
81.335 0.16966601080755672 -2.181504892787679
81.37 0.7398261410723879 -1.0158699885146891
81.405 1.2045183737178857 0.1969588227744823
81.44 0.6303871188495729 2.3143205898823553
81.475 0.9659226215532195 0.3666560518748938
81.51 -1.8772883395724476 -2.812910416605744
81.545 -1.6570789213241106 1.175179920776286
81.58 -0.9368822455857573 2.525242395343956
81.615 1.2826783911983866 2.818783573584721
81.65 -0.855315338499878 2.3513289870400804
81.685 -2.823068527351566 2.329978194363722
81.72 2.4659485043528657 -1.823130526319831
81.755 0.8961944992656559 0.3994344177292499
81.79 -0.8775475332850506 -2.0066454740015436
81.825 -2.548871983020148 2.232498748832204
81.86 -1.4700462515409711 -1.1702547187719206
81.895 0.014321998625387078 1.5439611269586926
81.93 -0.2139554105739696 -0.25948454406027466
81.965 0.28319516616601836 0.034384030378596275
82.0 2.9362157861888005 -0.15658802353145718
82.035 1.1637871016657284 1.4804976181057437
82.07 2.3741834437212144 0.011978517149888512
82.105 -1.2850658239502468 -1.6901175489524003
82.14 1.0878352483796279 0.8553773021130577
82.175 2.7834825374486636 -2.0983124337412926
82.21 1.0929037248290088 -2.101141958210527
82.245 -0.8964417676062562 1.1245014558204962
82.28 -1.1372625828686413 2.3600719349351964
82.315 2.633465184152719 1.233883879291707
82.35 -2.49073801080858 1.4207000230982434
82.385 -1.4113689140184675 2.754262577495876
82.42 -1.8951199521402324 1.400662759462659
82.455 2.781229440593069 -2.404321819345368
82.49 1.7747607627232054 -0.20589727756442766
82.525 1.2363325318370406 -1.7687355467508765
82.56 0.8260393429699155 1.7558700339629787
82.595 -0.26495599334439923 -0.5557900014662764
82.63 2.707689931109007 -0.714732115641177
82.665 -1.131001602569715 1.2515568450087635
82.7 -0.27737051597894147 1.3493904785609208
82.735 -0.011267094892224883 -1.5539858224228904
82.77 1.7025555186412626 -2.0953811954336397
82.805 -1.3829389295847494 2.057874391362362
82.84 -2.8672916895280474 1.525013113191697
82.875 -2.4642148700616677 -2.2653035118953557
82.91 -1.1837010073733596 2.192396888992291
82.945 0.492619257769251 -2.2046721925105945
82.98 2.9508034443260556 -2.555013361764636
83.015 -1.739216252621806 2.104636363545223
83.05 1.2477672992359565 -1.748632934733523
83.085 -2.2357535342206436 -2.631308413495989
83.12 2.234784089819379 -1.6740500682054578
83.155 0.8678650675242929 1.4048304501837283
83.19 1.8499147156451679 2.191196992386846
83.225 2.6834806855705446 -0.5752413925398083
83.26 0.02826383507104402 2.7617089551368688
83.295 -1.931491309461411 -0.08810012882177087
83.33 0.004108025948665217 -2.026549822217973
83.365 1.053199156133246 -0.8856488046000757
83.4 1.6886735282374605 -0.6446051061800451
83.435 -0.4074026960938619 -1.649179348565224
83.47 -2.9283933099184085 -0.3859454259301036
83.505 1.7853822071512842 -0.5745263083210876
83.54 -2.318831873440635 -0.369013703341756
83.575 -0.9883383769569167 -2.8605438615193686
83.61 -1.7609586804230473 1.100121212020225
83.645 2.1230773308975395 -0.28749579946646864
83.68 2.9677085598115296 2.5134915846277694
83.715 0.9960894077035216 0.33028713136265253
83.75 -0.5769310538172407 -2.6173853848064748
83.785 0.9116279616546699 0.9730244616276669
83.82 -0.5868443512108252 -2.1383599278765195
83.855 0.32424032034680095 0.5414929544796212
83.89 2.7888607848439024 -1.6812126049803189
83.925 2.6830673700824703 0.4759639555795132
83.96 2.907910409959063 1.6518428687612834
83.995 -0.805763030764858 -0.358819377960484
84.03 -2.247909497964697 -1.5942628087754809
84.065 -2.1949891565677397 2.893257809809695
84.1 -2.6689569631614902 0.8349648584705722
84.135 -1.3742382101213242 0.3246969521969063
84.17 -0.00022328187065401295 -0.74040300962958
84.205 1.5897315980043878 -2.9469442611281105
84.24 -0.8160430492918054 -1.9147092595710935
84.275 0.06161041823740798 2.2257148589266684
84.31 1.1490350837757466 -1.2263615196729094
84.345 -0.8320291679727347 1.9128803312988327
84.38 1.5285014996217623 -2.667285320385019
84.415 2.8518194304190287 -0.2126010468770776
84.45 -0.7593361914158132 -2.2665039310138573
84.485 -0.0802663319533452 -0.6522054269306923
84.52 -0.7827975129845741 1.0218001942272197
84.555 1.296841430478876 -2.739069989847894
84.59 -2.344126302603298 -2.603840756902078
84.625 2.9695503893500206 -2.226449384372627
84.66 -0.974734569841494 -0.10086481093974986
84.695 2.8137233444518044 -1.6249326367832548
84.73 2.8429639507974755 -1.0474676790319626
84.765 -0.9095032481807148 0.4890671459743907
84.8 1.1141702445359039 -1.3980767505860492
84.835 1.8516394109914256 -0.42761648266986985
84.87 -1.7512912433776764 -1.757798975787943
84.905 0.02466880304419261 1.2232399489612842
84.94 0.2445311692206955 0.8777694826149836
84.975 -0.7665674348842055 1.7320067972321203
85.01 -0.30283583063528474 -0.7296467403323188
85.045 -0.6746497586991373 0.5570799693639088
85.08 1.4109887196852862 -1.3466077914863803
85.115 2.588619761059756 1.330226249911727
85.15 -0.900120896015602 -0.48229710173538853
85.185 -1.1606817568403478 -1.562740421001848
85.22 2.551968035564224 -1.3430912201150575
85.255 2.4057795604763825 -2.514534907442787
85.29 -0.6565361139065808 0.5498355325190492
85.325 1.9182801782755214 1.2068618471569674
85.36 0.24790499576246372 0.9400111779038975
85.395 2.8187279885754446 2.866020576431242
85.43 -1.5175226072957082 -0.14397462170095188
85.465 0.5786865513593158 2.386410748068899
85.5 2.3998358219144955 2.201161874875095
85.535 1.442982998980237 -2.7173553212070676
85.57 -0.48902284818966035 -2.193762328613138
85.605 2.420603356550014 -1.1636103846589558
85.64 -0.08619447663290547 -2.8044520712553123
85.675 1.5431532180492114 -2.058020371985614
85.71 2.6283056279041337 0.4810472420187606
85.745 -2.615524105180697 -2.2925302552286317
85.78 -0.30012252688900043 1.7342132582676633
85.815 0.6268284726743871 -1.1960859939531825
85.85 0.524152643438059 1.1390178245641818
85.885 -1.715023447203236 -0.876717981904259
85.92 -2.246588609749247 -1.9324105504964368
85.955 2.6993651678048867 2.213689677213992
85.99 1.47960651024911 0.0507762336323645
86.025 -1.915648128805597 -2.6714208134637962
86.06 -1.2251247550770106 0.3744120880651982
86.095 -2.882211842800409 0.36428045190737723
86.13 -1.9351632519571886 0.40604743878584615
86.165 0.7003751764736323 -0.13771276039456648
86.2 -1.1919747067179691 2.5682012916431702
86.235 0.3366377876986497 0.8080768579729023
86.27 0.285814144850113 -2.165716975034167
86.305 -1.7853033899771116 -2.6388011350176783
86.34 1.3330764693576038 -1.1985549418932109
86.375 -0.79893919983654 -1.4040058537029103
86.41 1.4451687965838145 -1.9870547862422638
86.445 -2.9429774367292185 -2.9932001885208805
86.48 2.408536570365352 -1.4178003608451182
86.515 0.11032159006109743 -0.7960821356831778
86.55 1.0826577273880764 1.9755933441941005
86.585 -1.5137450011381017 -0.7870274597982372
86.62 1.952579626191236 1.8108414428987578
86.655 -0.9565627878694376 -2.2434682298478714
86.69 0.5623594119235056 2.7890465378275167
86.725 -1.6544691322525376 1.0269966542547546
86.76 -2.4599046862748786 -2.1107481117652727
86.795 0.3632111720482005 -2.3598024134906446
86.83 -2.7690570378240946 -0.4235332304941817
86.865 -1.6351635537326756 -0.3800835757461072
86.9 1.436681028864254 1.944628947371275
86.935 1.3710086387389318 -0.604290424325971
86.97 2.660877122621712 -2.8286152512782645
87.005 1.9148285524256927 2.0415260109314115
87.04 1.0966730346000109 -2.747886814548629
87.075 -2.534370761323458 -1.7013559321914082
87.11 -0.9764827792008803 1.1441183831178265
87.145 -1.1909957237795663 2.7905482593093485
87.18 -1.2219810320321303 -2.6072489057817307
87.215 1.64231430478698 1.2607287215835992
87.25 -2.9495274490724452 0.36151464043214543
87.285 -1.1847093275712661 2.4244921582663554
87.32 2.4359090469358575 1.7923954216081708
87.355 -0.8159623746218463 -1.8386706468763303
87.39 -2.667873710942728 2.3076003975846895
87.425 -0.8286222837319304 -0.8209338165202542
87.46 -0.003246872159041736 -2.055102115208974
87.495 2.1847164085565867 0.44251277323779004
87.53 0.1053303789393758 -0.610845668487545
87.565 1.5366915351449937 0.712671820658759
87.6 -2.1532968153753513 0.09877440426898443
87.635 0.8878237332648495 -0.4111921395448992
87.67 -2.9578839184855013 -1.0348982906104287
87.705 1.5265962576199599 -0.38103358238630447
87.74 -1.5840468744942209 -0.8936205233310108
87.775 -1.8868654099653022 -2.6370957538542843
87.81 -1.0890461602714958 0.8412988237823027
87.845 0.24063582770874392 -0.8591982998497554
87.88 -2.9382218204116297 2.162273699730232
87.915 -1.0452203108822629 -0.792962147225986
87.95 1.5654272603947936 -1.8045767393773364
87.985 0.9724319569107751 1.46671522437723
88.02 1.2505411390570778 -1.0396970040974627
88.055 -2.4254820764971687 2.293286157566061
88.09 0.06441934844789277 -2.0096792019285425
88.125 1.4667897980025262 0.7900060260256474
88.16 -1.323302874468941 -0.40415202604266476
88.195 -0.47802134445650757 -0.2632180193951763
88.23 -0.05952616922961074 -0.9184756614951732
88.265 1.8763913705171542 0.33756047292290536
88.3 1.855339484765925 2.3001285133650287
88.335 0.2577851626147778 -0.6623502619257831
88.37 1.9052639926319834 -1.120300580532755
88.405 1.9092243806570695 -1.4696396654992905
88.44 -0.6058665501586551 -1.993277601398109
88.475 -0.14529163792766409 2.065302580012533
88.51 0.3271982069549981 -2.2630895944940015
88.545 1.6738308533125936 2.6529047724577706
88.58 2.7137812945283297 -2.0947110937058158
88.615 0.2712148405038599 1.8991882002026834
88.65 2.313251746531721 -1.7596635235540377
88.685 -0.1447465538635222 0.9120319990330548
88.72 -2.84227356517963 2.7905939971359857
88.755 -0.7150020656105691 -2.215653166097487
88.79 2.034054967385936 1.3236429912527565
88.825 2.4483966119547773 2.2371947338438423
88.86 0.5177124330379821 -0.31285590425356724
88.895 -2.858331050853093 -1.246562486680009
88.93 -2.1875000255312784 -0.3283916896956618
88.965 0.17322126894945855 0.27538741475121986
89.0 1.09173080724264 0.949381582700809
89.035 -1.6649481773695276 1.6790615808967462
89.07 2.354682298038518 -0.6048687826211121
89.105 1.1897555211532125 0.2863173563768129
89.14 1.7041067443084452 -2.06935988559096
89.175 0.9377984377493498 2.9154704507082476
89.21 2.3310908949496167 -1.153916411949698
89.245 -1.0039981577470072 -1.3430243089676248
89.28 -1.3794595232009508 -2.927473534753953
89.315 2.660133843636778 -0.15219488604262432
89.35 1.1445854596076124 1.2561335652956558
89.385 1.7162172675570537 0.6552602247257988
89.42 2.2430306274271397 -2.598370843253045
89.455 0.7710003313934897 1.5317002622708848
89.49 -1.9155779678697373 -1.181760409743019
89.525 -2.913644972290874 -2.266977122111334
89.56 -0.779080032698831 2.5490175469087433
89.595 0.368232262909965 0.7684954157050143
89.63 -0.7817290230496201 -2.3606105159467603
89.665 0.9069987126846744 -1.738615429550774
89.7 -0.31082638927656303 -0.7203377319126669
89.735 -1.3834276388868734 2.0452899653820396
89.77 2.445472519509172 0.49344393582311796
89.805 -1.705448340221651 -0.6221889050965694
89.84 2.718915301351971 2.1261178775236345
89.875 -2.6360244308303975 -2.761878125930285
89.91 2.852932502421551 -1.995934809547182
89.945 0.3157245402415494 1.7170875013031879
89.98 -0.9279416749315175 -1.3434486847756508
90.015 1.2747880321276717 -1.949619719551255
90.05 -2.485577847149384 2.173098207065804
90.085 -1.66102161994907 1.99217029202303
90.12 -2.9668640314005943 -2.2114906843851587
90.155 0.21883766044723663 -0.6415740107967112
90.19 -2.112229945382537 -2.790146365728921
90.225 -0.06171703345759694 0.2082985593208877
90.26 -1.6420411922820897 0.7365611486016004
90.295 1.5889417775167596 -1.9579749400485975
90.33 -0.3666545419047722 -0.08891701350371206
90.365 2.780386885662471 2.7110342359953
90.4 -2.3063193011050633 0.5458583764531446
