! Created with skrf (http://scikit-rf.org).
# GHz S RI R 50.0 
!freq ReS11 ImS11
75.0 3.173376335437358 2.5540967842034226
75.035 3.8765999682939123 2.2098662943657765
75.07 0.12431734159457641 1.256447183190622
75.105 -1.502304790425123 -4.142610681976729
75.14 0.499233121555025 -4.3249087019361685
75.175 -1.6267786847039212 3.2615097964571103
75.21 -4.8491297648270795 2.6519950112764423
75.245 -3.84267029892099 0.37037703054730753
75.28 4.399630747019339 -3.010467132339776
75.315 1.093222490343334 1.9564993068215375
75.35 4.75612742198784 2.651800084524658
75.385 2.688896324952914 -3.380556760631314
75.42 -2.22502780991936 4.566283489014391
75.455 -3.0519682562515724 -0.867176138580964
75.49 0.08574402759257138 -3.2483252031710617
75.525 0.39198538602053357 -2.99369796042003
75.56 -4.748276008344265 0.5383432427399693
75.595 -1.5672106995482715 -4.482481297345078
75.63 -0.9833958239338603 1.1682870495421804
75.665 -1.7004770137880054 3.3107124536256816
75.7 -2.524533320387979 -1.9577728763334745
75.735 -4.137241715552252 3.792879261856068
75.77 -2.5722864852642227 -3.1672900746590904
75.805 -1.015243791328796 -1.824617640478079
75.84 -4.178483237573159 -0.35179293668531564
75.875 3.153078592825681 2.460017031100752
75.91 0.27443691891257616 -4.501621733057276
75.945 3.74385096652891 -3.5764116465258877
75.98 4.037177880926595 3.0032483430678902
76.015 -1.2542172123368744 -1.3472950462897426
76.05 -0.22886142136178012 1.9928403121650706
76.085 -3.623972671847592 -2.1944625444267185
76.12 -0.7447937585715436 1.6265515458137147
76.155 -1.8116072273669848 -2.8301190998081704
76.19 3.4954054224585063 1.7957171108088599
76.225 -1.9647097774251643 4.116490784503385
76.26 -1.571809279362989 -2.4519719538497
76.295 -0.6121123250554272 1.6660543909812564
76.33 -2.7482418138991402 1.6324606553602006
76.365 -3.541389954863833 -2.8745625724226076
76.4 -4.880646511545018 0.15607946568875652
76.435 2.286590772691177 -4.6949756522849375
76.47 -0.13361249697970146 -4.9398539798314225
76.505 -1.9862161101260778 -4.495891816135752
76.54 -1.632204257164952 4.910488108271226
76.575 0.9801242699373947 3.54138495731413
76.61 4.943040636084105 -1.2412255817126006
76.645 4.404203838559732 -4.420356897357492
76.68 -2.7746400942081495 3.264143980908404
76.715 3.396768028208903 -2.980545620519446
76.75 -4.698313882526657 -2.937457483969921
76.785 4.498070564004065 -4.998495971786397
76.82 4.523458755661044 -0.9497565045682954
76.855 -3.8333741457960113 -2.862702973789669
76.89 -3.1344597743586533 1.2232541217861015
76.925 1.9294380222337215 -0.10327991609381137
76.96 -4.772701792102366 2.433252137243529
76.995 -2.800632737646148 4.504172124766249
77.03 -4.909943311227498 -2.715388226388842
77.065 3.147472238443354 -4.454631932226381
77.1 4.205186710665895 4.53620973465658
77.135 0.037508543127570126 -3.8851239163912177
77.17 -0.6715736413799256 -3.944200597451534
77.205 1.8521070969471942 -4.3258768189082195
77.24 2.1495299854263274 -2.9964610223692167
77.275 -1.9897660382120719 -1.775995440282695
77.31 -4.992642060661271 -4.871667954669201
77.345 -3.8167605074144326 -1.4434747195678865
77.38 3.1292412603253963 4.263081599066285
77.415 3.8734008599593883 0.8077094703241416
77.45 1.9653485759859257 2.6546250035656103
77.485 -1.1498332041987924 2.9230086863276536
77.52 -4.3879609386481615 -0.3371319154997232
77.555 2.440683337839067 -3.216110907182388
77.59 -4.2631824212059355 4.752018719182765
77.625 -3.013980238014078 -1.305453221433559
77.66 -3.1775154939305885 2.68354064494717
77.695 -1.8751715813730085 1.273837074404135
77.73 2.639446858396669 0.6768413686753283
77.765 -4.69663365027433 2.458636848183552
77.8 3.7247217482700377 0.662934477395255
77.835 2.411537163308778 -0.16128921813956643
77.87 -3.7124762632788224 3.372125277522734
77.905 -3.6002235902446933 2.526266383576634
77.94 4.159895080775275 0.9202416860158147
77.975 3.2170572676716658 -0.6998622244467045
78.01 -0.44300441213318553 3.271477701881771
78.045 -1.45089194723647 1.5573951382380635
78.08 2.5929806536887865 -2.937870812125211
78.115 1.0661867405714576 -4.092335472178528
78.15 -4.980595715399605 3.617265185856554
78.185 -4.82244486455515 -4.0294805280603105
78.22 -0.15113476902410716 0.9024859994446477
78.255 -4.805845522727203 4.338997673225488
78.29 4.843308964092511 1.2426578762340812
78.325 -3.3536728167792305 2.899105914697746
78.36 -3.575985583438468 -2.5416031718681555
78.395 -1.288782710823635 2.5697549148243626
78.43 1.740922141775385 2.450476753875498
78.465 2.9641757655034775 -3.1159090760075814
78.5 -1.091320208341845 -0.6127239229638248
78.535 4.453229808275479 -0.14795752837188036
78.57 1.25209247980548 -4.1157572830724405
78.605 2.3572727490759315 4.315166019726283
78.64 -0.3878555333671396 0.010539919640233375
78.675 -2.7974834651682334 -4.210347000022461
78.71 4.293370431669137 0.6205573254769037
78.745 4.708231218181817 -4.66725093281592
78.78 -1.9282219685027935 1.5591967556165576
78.815 0.05256915323734068 -4.530132636177208
78.85 -3.9240249758288392 -2.715291532980885
78.885 -2.663904321535673 4.870472381115557
78.92 1.5855507880014574 -4.5882631701470356
78.955 3.4287493589838802 0.6625526966757989
78.99 0.2500947758753913 2.8353342009634264
79.025 -2.0202562894013187 4.684070255260738
79.06 -1.6046243491773227 -4.390343400430025
79.095 -3.3799204194653063 4.129950673988545
79.13 -1.6833709193792923 -2.17822646390734
79.165 -2.6582248738801715 3.8341418987255462
79.2 0.09774827204797609 -4.406188777070133
79.235 -2.1705253212147135 -0.605120614411434
79.27 -3.520779034345586 2.5636204394737474
79.305 -1.9404488154166855 -0.37355370081388006
79.34 -0.08907212722530033 -3.5985078680492544
79.375 3.7736669738648168 -1.7410805123022144
79.41 0.5149159486051347 -1.338462888008316
79.445 -4.032223635625227 -1.7181308200779954
79.48 -1.0004527510497085 -4.576371717628001
79.515 -2.6283078041847405 -1.190525872833581
79.55 -3.662938815900849 -0.4304080589729753
79.585 -0.8598356383229611 -1.7825728295366583
79.62 -0.19666857266700033 2.9764858904210234
79.655 0.70762843611892 3.4294552374803757
79.69 3.214201053465464 -1.2689411187464472
79.725 2.132064296008782 0.2892303480560199
79.76 -2.223747208858591 4.764790457607568
79.795 2.730238118122955 2.5419461322730696
79.83 -1.6667663717362136 4.460703972849254
79.865 3.8211050193784466 -2.209379773158213
79.9 4.489068033131115 2.5221389411787856
79.935 3.633347701161407 1.0418795147888882
79.97 1.390308341087424 3.538751332497619
80.005 0.6512125647269229 4.586323297795364
80.04 -4.304645407028786 -2.729033631392875
80.075 3.198136343973117 3.3563899408584486
80.11 -0.3200057323013583 -1.4105440112842593
80.145 -1.6505735578990222 -1.0548260896713268
80.18 -1.6702069673548303 3.5313834508328745
80.215 4.945907926493588 2.9409504653167007
80.25 -3.957255421440047 0.4370298579625409
80.285 -0.7748389043909276 1.3938791114015614
80.32 -1.4471668189102316 -2.596228493957742
80.355 -1.3473283907035782 4.616868209967806
80.39 0.01988762475827799 -2.2149677517735213
80.425 1.2643871551546515 -2.5511438946567355
80.46 -0.9386861144300596 2.5848049476335957
80.495 -1.1199311923156097 -0.9152359903715102
80.53 0.14451903568774238 -2.1397439749682046
80.565 3.806254158978871 1.3636839224897557
80.6 -1.9449954657413426 0.6438806469060987
80.635 -3.409329595883249 -0.8053664100598035
80.67 -0.5849541539202341 1.7826405364665854
80.705 -2.130986193832528 0.5643223435374378
80.74 -4.457858040467402 1.3299997852689183
80.775 -1.3722871852125662 -1.6479140766090428
80.81 1.0342574380767444 -4.872429305419446
80.845 -4.6549695271641625 -2.620422128899016
80.88 -2.6158246278949484 -4.163911055972209
80.915 -2.8401470454083952 2.8982726782999704
80.95 -3.227873595312727 0.6194033820808043
80.985 -2.1576558324281256 -0.8901113596858568
81.02 2.4047957573701915 -2.7594831380169547
81.055 -1.4314045780839668 3.329886470234409
81.09 -3.5135311387626333 -1.0028039389249455
81.125 -2.9059762148907065 -1.2928031287293518
81.16 0.4322972657328905 1.9892775913086447
81.195 -1.829558662431613 -3.4470961255525525
81.23 1.63162778050007 -0.2093741440237351
81.265 1.6535491859417117 3.0475887612689743
81.3 4.424868838504271 3.9415502944591485
81.335 -0.011723878415479394 -1.812082132349434
81.37 -4.6367403456825915 -1.037544653809911
81.405 -2.19709406919691 0.11934670826131866
81.44 -2.216081899778406 -1.4743887606306605
81.475 0.5477697419902405 4.771500377127329
81.51 -3.9664815679705514 3.396799697527624
81.545 -0.9993020002973141 0.9896686656810205
81.58 -1.7128469922293965 -0.3447753528345343
81.615 -3.123207940390047 3.296299678400063
81.65 -1.1627320863642976 -3.36884860147018
81.685 -1.4994570544554808 4.074627786432105
81.72 -2.234683525279503 -2.383645797407381
81.755 1.0421672280106464 -2.50043324490401
81.79 -3.847647487472059 -4.103308821462375
81.825 4.558918406856952 3.3905434671036803
81.86 3.099523374731313 -4.214860953890209
81.895 4.004810908185191 -4.08659436857929
81.93 1.9418763650110682 2.647798798349059
81.965 -2.8928853448591108 -0.036924815509825626
82.0 -3.454177461929222 -3.34101907984673
82.035 2.577695692116774 0.21410932806648852
82.07 -1.3840500905546527 2.907241468171793
82.105 3.670190107495812 -3.602484094853767
82.14 -0.13769264397847536 1.6581742975838742
82.175 -1.0825223824968044 3.7429877480582596
82.21 1.1960823165615564 -3.096524918420327
82.245 2.45344352317445 -4.147239678732809
82.28 3.57735849803297 -0.2902134401886991
82.315 -3.602139766893538 -2.685594218154624
82.35 0.4500236644870881 -1.6228782905671868
82.385 4.755636845046038 2.520776388480325
82.42 -0.7569068343822682 -1.725173235007852
82.455 0.9803514395949675 -2.2947431705394794
82.49 4.590794146455876 0.618380825787006
82.525 -3.7566157780549094 4.521731325711235
82.56 3.3804227528414654 2.1280250461437387
82.595 -0.1286677687137272 -2.1462455863100818
82.63 -0.30062724752885295 -1.9105470292239446
82.665 1.4477080056279468 -0.9116063410736375
82.7 -2.83152016057456 1.991486812883162
82.735 -2.8503631573035673 -2.416979806950059
82.77 0.8170025900438282 -4.402321559288962
82.805 -0.7780865745249832 -3.666826361376968
82.84 -2.083883509910244 1.3018644081816122
82.875 -0.30897076524657896 -3.551701280493212
82.91 2.703601523816989 2.2093369813714068
82.945 -4.032780352025014 4.9878580723229256
82.98 -2.1509349172717473 -1.5733313154036388
83.015 0.2517873454050301 -1.7483686048159575
83.05 1.555676901769214 3.2758192595789626
83.085 -4.548365918004972 -3.8283617348125065
83.12 -0.5302439577264628 -2.212246873092573
83.155 -0.5652955794360937 -0.5917095519279947
83.19 0.24166164037739524 4.665713923433545
83.225 -3.7503442441225476 -3.267284147120131
83.26 -3.5759002455161704 -2.2698106916551817
83.295 -3.38266550293104 -2.6888079707158186
83.33 0.5997573041727844 -2.086648093785093
83.365 2.7512978897522222 0.1794387225873284
83.4 -3.7812101823276922 4.364513038740718
83.435 -2.372130369262224 0.6861627079525845
83.47 4.426773860941104 2.051263704295918
83.505 -2.505756478164006 -2.55957177928856
83.54 -2.0178243769801107 -0.7488557830349285
83.575 -4.954139033091027 -0.7607115410005805
83.61 3.2740348816782996 -3.3710940665620215
83.645 -2.0595446394639993 4.995137194812347
83.68 4.066012868640248 -2.604283829370818
83.715 -1.1082161940442459 -2.723651886447993
83.75 2.2221943341581984 3.4402602537048677
83.785 1.1252969583849126 -1.5463360013081773
83.82 2.8527102085882428 -4.411908664323438
83.855 4.810157568948364 2.871648259625709
83.89 0.8340897468544284 -4.032660157670107
83.925 4.213964614675726 0.4082920925515232
83.96 -4.236114842674404 2.9696772058527077
83.995 -3.704069489318018 3.9198366034218832
84.03 -3.5140999388948337 0.701152104818511
84.065 -0.08810632387861506 2.078915008741584
84.1 -2.8848441369878164 -0.12241357111295481
84.135 2.3614594824825454 -1.8499650717007632
84.17 -3.6661220158527885 3.0435887063958003
84.205 4.727174314361894 1.1376267010313468
84.24 -1.1251148012773637 -4.920266107723943
84.275 -0.009275699745913135 -1.431842878357522
84.31 -3.149681727605771 2.4975815126310765
84.345 2.9857260566161035 2.377137751428251
84.38 -3.4393887578601534 -3.446660124824199
84.415 4.4648130478346015 3.56035770448167
84.45 4.8065490754362825 3.7593523485242164
84.485 -2.6885271746613713 4.3012325042361965
84.52 -3.056162430069568 -4.925802914694202
84.555 2.0291666711298895 -2.056850149449229
84.59 0.4759314334411202 -3.067793171831894
84.625 -3.2036495562820577 -1.4941353598071405
84.66 -3.867832873161995 1.4201449572415559
84.695 -2.7097137910490465 -3.865159921380773
84.73 2.24394166105197 -2.636198128614563
84.765 4.25905786803499 2.2917752539253913
84.8 -0.40975339575240133 -4.452672822693139
84.835 -1.2878903771784123 4.20053278622566
84.87 3.093511924838752 2.679175820314624
84.905 -0.7522511461183357 1.0804993056279066
84.94 4.202363628981192 3.006218115866781
84.975 -3.2313563062446935 1.586404807416013
85.01 -1.0225029010377262 -4.226555180287381
85.045 -0.4617659484315717 3.961195378457505
85.08 -0.760264892449054 -4.9000362558485255
85.115 -1.8492736121806697 -2.5095462958824513
85.15 -2.024369893217642 1.0461065661975721
85.185 4.552817483223346 -3.8312056092685864
85.22 -3.6519754952350025 -2.3172378408214667
85.255 0.45315746207997387 -1.5491421533410266
85.29 0.10799301423500163 1.1206056635411565
85.325 -2.591452659623552 2.156887908474825
85.36 1.0655614432423444 3.1925116438930337
85.395 -4.408852067577094 2.5107209789240947
85.43 -0.9654774501245811 2.4151974643396477
85.465 -0.7875668109727352 1.514712283303632
85.5 2.546712794542474 3.0180530246708903
85.535 -4.420414588266954 2.2531692870694275
85.57 -4.759093139622575 2.136140702539575
85.605 -1.1992475927849011 -0.950082676963605
85.64 4.837308338032463 -2.447319762454898
85.675 0.69424626139867 1.5062099158704823
85.71 -3.4512313022064243 -4.441925615725273
85.745 4.633105411168389 1.7885876388502198
85.78 -2.101954389802998 -1.0287952981440474
85.815 -2.919858748924584 -3.8346316147412054
85.85 -4.898471063080468 -2.446402637906111
85.885 3.803079470672656 1.0004871166137463
85.92 2.4081970364735037 -2.3897094001212915
85.955 4.470718435671217 1.9182611100265645
85.99 1.2980525715276536 -0.12917621866675
86.025 -0.5147500396729088 -4.869405912211402
86.06 4.814811622577521 4.677569598351576
86.095 2.4299243625068323 3.824097820543658
86.13 -0.8984036759190839 -2.425749555778772
86.165 -3.0206383816189297 -4.185322235122361
86.2 1.1130029271847275 2.1251600407359383
86.235 -4.1200847418222235 1.8902445076146224
86.27 3.3966917709406474 4.571689944284651
86.305 -4.4541501151884155 2.986139659460462
86.34 4.4870845764803775 0.06495187888472032
86.375 3.499536537078307 -4.339466168643159
86.41 1.7511691977284038 4.587794673937015
86.445 -2.5564734410918177 -1.4606389527166042
86.48 2.4117831109283627 -3.5719569948463104
86.515 -1.8888475612132816 -3.9215170506813113
86.55 2.3746502481320975 3.8866185442009007
86.585 2.959412646699593 2.313408101310447
86.62 3.712293047428028 -1.1732015436290766
86.655 3.07658672773107 -4.611097433550796
86.69 3.831457751121332 -3.1414713207825606
86.725 -0.00040582442026093624 0.9268896293063011
86.76 1.2214395185273685 2.361391671302031
86.795 -2.5524031975754213 -1.986144192105308
86.83 1.1341900747343914 -3.395784380367035
86.865 -4.987074949642576 -0.5890036909619578
86.9 -1.3204249952135472 -1.2547360868270474
86.935 -0.168329056766634 1.5311251308687046
86.97 -3.9835841513401427 -4.617044918630013
87.005 -1.6451420965037544 4.336208361579168
87.04 -1.9018323220618794 -4.058187478299825
87.075 3.9150779216882015 4.732472108200031
87.11 -2.4067733873676023 -2.5520280658362307
87.145 -3.1630956473585057 -4.683522596544465
87.18 -4.91182303276524 1.4712748004199283
87.215 -3.343346766803897 1.7201989093805181
87.25 -3.829764430794654 -0.35104060262239445
87.285 -4.607428396935916 4.260655969698329
87.32 -4.768749661911325 -3.2382357463841736
87.355 -4.503635153577753 -0.8685536444605502
87.39 2.1354209995440963 3.4056989341139965
87.425 0.5788888046570462 -1.3576936042083998
87.46 2.6173676459032 2.990533924782408
87.495 4.13407720110918 -0.3779274592658677
87.53 -2.2011561327227147 -4.091201694920388
87.565 -2.653196753853707 -1.681570065534549
87.6 -0.8972442193311769 -1.997513761716131
87.635 -3.9041231914507013 1.3238643859341714
87.67 -2.5384036275113866 1.453265445443661
87.705 -0.7829895551828459 0.3172063552015447
87.74 -1.4666633896700532 -3.305910562860286
87.775 -4.565916164239931 0.5001307393902366
87.81 -0.9186284353135432 -3.7733095702056865
87.845 -1.3690523074676564 -1.5091475004039123
87.88 -0.8568877455903967 -4.050380051368939
87.915 -2.4317971469265567 4.462460648835807
87.95 4.163807241049007 -2.078038152488509
87.985 -0.13513038247280895 2.541133124405348
88.02 -3.900276353984049 0.23289827282613196
88.055 -3.102036873145382 -4.60672558768854
88.09 3.466713194652046 2.8923919375803386
88.125 -2.019314983828014 -3.323784553164415
88.16 1.086075241267087 -4.963272059116849
88.195 3.486005511060629 2.8645498467535124
88.23 3.173373341864425 -2.4692822834885817
88.265 1.670141334856512 -1.0563695182604138
88.3 3.211250074284834 3.0377659195398907
88.335 2.3050170699758143 2.173328413825708
88.37 3.2424525470307 -0.48870483976133694
88.405 -3.6473972050059578 -4.67662950085049
88.44 3.860958560131036 -3.4043824168556727
88.475 -1.8416180563333973 1.8552311773944807
88.51 -0.9449228307711233 -3.8634410478551584
88.545 -3.062922410392348 4.265236710376344
88.58 -0.2980425649303642 -0.08065706428923791
88.615 2.54757966629401 -0.01629859974343062
88.65 -2.2829620695800945 -2.7182769358246217
88.685 1.2848753361735388 4.878671138411381
88.72 -0.6506761837209185 3.6238286726039726
88.755 4.467875243814104 -1.0138534269742938
88.79 2.106777607121667 4.967927434770983
88.825 3.2934374546248204 0.5455684795590232
88.86 -4.215799002068103 -3.5525007113051563
88.895 4.123217783162907 -3.5934133983578675
88.93 4.602873259182512 -3.90981589156988
88.965 3.1066417933316193 1.5783762584242622
89.0 -4.256804232762377 1.342248934236946
89.035 -1.8076434486283521 2.65300134840486
89.07 -4.608135659547806 1.661522666176769
89.105 2.2084948581028208 -1.6923450634879944
89.14 4.727423430152632 0.4954878785786876
89.175 -1.911668429037956 -0.2368694339315236
89.21 -4.012894156844556 -0.09628027726615418
89.245 0.6029200916648336 0.7788589363326914
89.28 -1.8347649534496568 4.757378390395966
89.315 -4.282836539492464 3.955761782168267
89.35 1.6752980054167033 -0.18960173731980445
89.385 -3.53191102013628 3.5423654897929344
89.42 -0.6612645340931023 3.130753860935249
89.455 1.1201541466537623 2.782477919184939
89.49 3.650122848723103 -4.228898362323516
89.525 2.237824460852732 0.11802401073313429
89.56 -4.149304550376678 -3.8670243497416648
89.595 1.641367230905012 3.623553613353704
89.63 -2.374387814415143 -0.9038216003254795
89.665 0.11054101278390571 -3.21497977142281
89.7 4.148289264601278 -3.9481065731319918
89.735 3.363870430036596 -1.6359915368039846
89.77 3.091550813365634 -3.160883342630032
89.805 2.565414346363318 -4.6268554545022225
89.84 4.886527645340331 -0.9251895888963291
89.875 0.8117171513609545 -0.40347480959199156
89.91 -2.9371583327173303 2.8221324156203877
89.945 2.4066957002808884 -3.5558092420056795
89.98 2.9924428522554134 0.81642269586369
90.015 2.954105770284837 -3.6693204994801896
90.05 1.7429585790560276 -0.9661417799019689
90.085 -3.699777425198506 -3.499463036217927
90.12 -0.905461812607814 -3.3902073724881756
90.155 3.031956127135087 -4.118012718081271
90.19 1.032988251117758 -2.5758598168132094
90.225 2.932029371374094 -2.906159499905361
90.26 4.865689369182449 1.818707290280751
90.295 -0.8968777000503236 -0.6929534734729326
90.33 3.4866936608781787 2.7739415413194557
90.365 -3.165159755424849 -3.991333849757992
90.4 -0.7756915009388876 -2.4574392895842645
90.435 3.9749440042772632 1.2156252711446003
90.47 2.2433637433426568 3.46867223613216
90.505 1.9687945464776002 2.5979927363469315
90.54 -1.5644295668082664 -3.0049823244088083
