! Created with skrf (http://scikit-rf.org).
# GHz S RI R 50.0 
!freq ReS11 ImS11
75.0 1.1550117185333253 -5.860714855748126
75.035 -4.641899495407808 5.983045001145568
75.07 -5.378031495132815 -3.817305801143874
75.105 -1.01503034443326 4.646858128868711
75.14 0.11139091555385683 -3.719707793466881
75.175 7.051281338075432 -0.628803005795529
75.21 7.861271604344214 3.956287830327092
75.245 1.8891540010569905 3.0589429116294813
75.28 -6.856743055721321 4.699242272929018
75.315 -7.64336876848582 7.308329997034864
75.35 5.277082367341169 -4.115474379029683
75.385 4.672666036638002 3.173772619885966
75.42 -5.601139236253088 -5.079267316865661
75.455 1.0433197062208013 0.4581314268999126
75.49 -0.8619465995738569 -6.358800321426143
75.525 7.254901232312891 -7.503866719677385
75.56 -7.200664293782516 -3.8534624724402686
75.595 -0.10325528276115037 -4.377312238732586
75.63 -6.081178308011465 -0.9022649883965741
75.665 -5.663810277119756 4.923173997063939
75.7 -1.919137328327393 5.572024084127991
75.735 7.273988389300827 1.018719933187036
75.77 5.1573430089590655 0.5980731510585233
75.805 -2.0753472667829094 -7.878288904987826
75.84 5.339227226796515 1.518024521239143
75.875 -3.9448526308128873 0.7165753869971176
75.91 -4.157789256690119 -3.3707460394321807
75.945 -5.78230309066894 -5.542048417554566
75.98 -6.330160937387118 4.870692226285922
76.015 2.166424522387194 0.8339807128784837
76.05 0.8453823503499063 -5.011661600675529
76.085 -1.7981469346408723 -6.408791617547253
76.12 0.04556974850805062 -5.2942063377976645
76.155 -6.047314095838827 -0.5710108906104701
76.19 3.330441498179052 1.841350446703915
76.225 6.375043326514879 -1.0127137124815153
76.26 1.638144786363208 3.4722463035255853
76.295 -7.39690560206221 3.8459845231058534
76.33 -0.8714946975108759 6.108441381309214
76.365 4.486158208971126 -4.351748904168636
76.4 -4.42508948879594 6.327125181675857
76.435 -3.2634673503342917 1.0572211100895643
76.47 -6.959118774411484 1.2968879841512404
76.505 7.562031775144918 5.831729309473808
76.54 -5.020511659161032 4.311499297671256
76.575 6.748874018155101 -0.6645540618648038
76.61 -0.8976298816291823 3.5563851202632772
76.645 -6.459273204360068 -0.24264723075043726
76.68 -3.201032238469013 -3.381705202612194
76.715 1.587721529208574 4.7976404306796585
76.75 -1.4504320294653716 4.252313117768754
76.785 6.137023589176083 -3.8719284773823848
76.82 6.415746118453807 5.477976468068633
76.855 -5.582134991250532 -7.16120826796419
76.89 -2.676649601096022 -3.475553373278011
76.925 -5.846187876917449 -1.2477313994129169
76.96 -5.300347167804686 0.42736024228810976
76.995 -5.11702113003763 4.274181045190549
77.03 3.3818333515761196 0.29917045480460835
77.065 0.09564116003945067 3.100036311744484
77.1 -4.147783206318124 5.651231053249717e-05
77.135 2.063111183468754 -5.342047730009655
77.17 7.266775264126736 6.90008362366992
77.205 1.8874666999175371 2.9229755539228037
77.24 -1.3858784559374389 -3.937597650972668
77.275 7.225401805830682 4.35700245899892
77.31 7.295633545473814 -7.301529521824792
77.345 6.058562558141114 1.881178437935656
77.38 6.551435936597242 1.4250695292488764
77.415 0.7165525831687258 6.010893394616842
77.45 1.5366321063983825 -3.0390403324648876
77.485 3.80195406150815 -0.8760954100781362
77.52 -0.4586323807353043 -1.8897330062039046
77.555 3.158566669168083 -5.216906734625102
77.59 2.965131482910044 -2.8867880827143573
77.625 -3.076955770555765 -0.36512607940524866
77.66 7.2880768257910304 -5.991281420270036
77.695 5.522921858336808 3.243712267187485
77.73 -4.434181472206189 7.717005508541304
77.765 -6.639072249324185 6.028193296931349
77.8 7.7308958827134955 3.113411241916568
77.835 -4.846806652067283 -7.467915853094556
77.87 -2.4868829460369373 3.701662451372645
77.905 -6.701949334000428 3.976510965893773
77.94 6.079929895028329 -6.085083548585347
77.975 -6.494149035946389 -6.127154647312109
78.01 7.281468464582124 4.143293326455382
78.045 -5.56870546028148 7.171240745289097
78.08 2.106503987758435 -2.6963917992701454
78.115 -3.3491617873608384 6.5822718226196155
78.15 6.709240357193556 -2.339169064975774
78.185 2.865549613987099 7.571839976204673
78.22 2.0442002840632316 7.021661618486522
78.255 1.1911899416504728 -5.557396832882249
78.29 -7.58366035883237 -2.933837976122236
78.325 -1.5852354991816462 -2.4249285482408425
78.36 -7.5388407311995635 6.908097435670937
78.395 6.142389096638867 -0.052852956443739885
78.43 -4.260932897027043 -7.170838019428793
78.465 -5.06891380763807 -6.242609675347557
78.5 0.23437618146714456 -0.4392276599285019
78.535 2.0723716494324815 -7.556586304909498
78.57 -7.864844787823996 -2.4999352682334735
78.605 2.0798123843993377 -5.185093472056213
78.64 0.9288426980078217 6.822909690170329
78.675 -7.307446840390625 -4.864798283950998
78.71 -5.404730968488698 -2.736010550652356
78.745 1.707457061562815 -7.154828583158137
78.78 -0.1672653032872553 4.6835228843196095
78.815 -4.550669858797194 -3.624000020778391
78.85 3.44354764091557 1.5131718374901162
78.885 -0.1555383990446284 -6.549305672926659
78.92 -3.2719626277487475 3.822842596482193
78.955 6.26416445495923 -6.267206567589403
78.99 5.468099271008844 1.9841101281426088
79.025 5.083470159761346 3.5617569095659807
79.06 -4.918143570266768 6.9636723787811565
79.095 -5.061948138318151 -4.2032027931534355
79.13 6.211573712954721 1.852524606107533
79.165 -1.102027677052611 1.8786236673104533
79.2 5.649271162037831 -4.921865780056711
79.235 5.391442050188735 -3.4875413116385694
79.27 1.34374292871356 4.0870313510619205
79.305 1.4512341857188922 -1.3515334362985794
79.34 -6.768736397278939 -2.6967787980528684
79.375 4.94044697876798 7.6650838759574444
79.41 0.6651198512289032 -3.6776917859752984
79.445 3.4293097054199553 -2.528351428264541
79.48 0.4735113277534495 -2.8532368173592992
79.515 5.984017608699926 5.6430146585879015
79.55 6.973241890622704 3.624210983068693
79.585 6.783244117759271 2.597541358647213
79.62 6.770744541974606 2.2739030396304436
79.655 -7.059711456072272 1.2817072007975074
79.69 1.418262050938731 7.76148043087025
79.725 -2.018965768157276 -3.464296680220585
79.76 -0.8795545542934224 7.302222747561407
79.795 2.5994931955395906 -6.450120985314252
79.83 4.88026583813137 3.932446544431988
79.865 4.80253006149735 -2.955831290215535
79.9 -6.476096397451677 0.42900020395260263
79.935 -3.1680817446053684 1.2547658983226437
79.97 -1.3062823037770652 0.1969838467053524
80.005 1.5904657532469137 2.5418601034165995
80.04 2.6468969561179385 -7.774115113485291
80.075 -5.032961371214508 -4.817260074370379
80.11 1.4865126454364468 -4.92569078926471
80.145 -6.991436002267806 -2.6825725846668593
80.18 -2.0038222093399316 3.2703471305969085
80.215 -7.546418336917679 -6.889337451768805
80.25 -6.769544506589822 -4.7650141484638855
80.285 3.254478467382409 -4.76413743837567
80.32 -6.839721805946315 6.169249435640872
80.355 5.381576818957701 6.348146375478425
80.39 -1.6896878133756736 -5.705152386151292
80.425 -0.6764303524164497 -0.26119666609709036
80.46 -6.024153144442161 -0.6337262764084066
80.495 -4.63738343327409 -3.4416648878305427
80.53 -4.744062757948541 1.6701557654976398
80.565 -5.911913013319717 -3.6321626255272204
80.6 -5.019701551596537 -5.635679217694314
80.635 6.828525277794817 -0.561057206304957
80.67 2.430512791394607 -6.669013595865353
80.705 -0.547442276067784 -4.0527889664384915
80.74 4.324617316455566 0.26097036000604845
80.775 4.791635655969268 6.631315599062393
80.81 1.6861495712343508 -3.059723601937465
80.845 0.7689310677715291 4.613265778603925
80.88 6.43120044562213 -7.874018043552079
80.915 -1.2282908129905046 5.53962674512915
80.95 4.611870591323305 -3.454694496589161
80.985 2.0864151330279057 0.08097542632807908
81.02 -3.8963612774170873 -7.36886448443852
81.055 -5.964990162970551 -0.8943679167049581
81.09 -0.10830864365519055 -7.739459784339177
81.125 -1.8564384291355758 2.9735830603658293
81.16 -5.078164701150492 4.237751042854178
81.195 -3.8333215895551884 -5.326662063020908
81.23 7.715366271343505 5.991133252846732
81.265 -1.9457425163655877 5.861515474627806
81.3 3.167937820144818 7.542446570318015
81.335 -0.4905405094055748 1.2447631980932687
81.37 -3.873468247437936 -5.788975135595329
81.405 -4.28734944447814 1.2608217962213448
81.44 2.011862542961449 6.108367164402223
81.475 -2.30587853469949 -1.989381250140859
81.51 -5.958760603932646 -5.085167034865879
81.545 5.967697057556828 -2.103372331129746
81.58 -3.277748709520555 -1.343000314383005
81.615 3.213984882245425 -5.033959697326706
81.65 1.320698903540027 -1.4613275463209447
81.685 5.832610788488148 -1.894561686189343
81.72 5.14828968553358 1.3742617686139589
81.755 -3.432528553054917 -1.6121093127990669
81.79 3.0970230215257217 0.8248520480994515
81.825 7.534208229018164 6.628133577144181
81.86 4.648464315637151 -6.914703999007207
81.895 -0.760751555432865 4.211994653908151
81.93 3.9086100469272953 -2.043174928340285
81.965 1.7250872128379058 -6.8306301872133925
82.0 1.4421210820638901 -4.738433251399369
82.035 2.899187053361297 -7.001460873280445
82.07 -4.669990885875526 0.7573176417043346
82.105 6.200348688548212 -5.28491766889735
82.14 4.363941842094244 3.1644757417637113
82.175 -5.839720440128696 -5.706827535534567
82.21 5.965866057282819 2.894955767587197
82.245 0.11006820501045489 6.813865838329816
82.28 2.7600314845094296 2.7415093512195625
82.315 1.2505446767438233 -0.9541475037586
82.35 7.382240683076237 4.295060365521131
82.385 -2.856388652890171 -7.393471948023281
82.42 -7.578571816962404 -6.501273299010844
82.455 -3.259998581817065 2.794209090285376
82.49 7.938690338271282 0.24806967978933692
82.525 -1.2514674465466218 7.5562629376252435
82.56 3.9341622908855456 5.329715918132738
82.595 7.022909100153269 -3.4852894813533517
82.63 2.118698240543841 -7.954825082682792
82.665 -4.212292237094282 -0.17536361972164016
82.7 -4.835625943832303 -1.9712025293153417
82.735 -0.6537217298573008 -2.7709474860053387
82.77 -3.3018997102246654 1.3094539540959413
82.805 -7.044781449928372 4.3229313976230905
82.84 -4.115459710577436 -4.746463414731686
82.875 4.381152048071527 1.2228444822096893
82.91 -0.6955936687157003 -5.170730992434308
82.945 -2.1040262818271405 3.44810371236027
82.98 -7.782470318713278 6.836344872095012
83.015 5.016390674811724 5.393451759630482
83.05 5.48632213983322 0.45978855865376644
83.085 -3.8701111904365337 -2.095883353946528
83.12 4.88155126630252 4.585447254178616
83.155 -2.1187734866347885 5.278513570899809
83.19 -1.7796951809655255 -0.11321106897874778
83.225 5.752076608840911 5.435189388953054
83.26 -2.942603806375983 -7.919281607339739
83.295 5.7101368830193895 -6.983607890116771
83.33 0.04809744391477544 4.17887541896819
83.365 -5.275417350853683 -6.595510111813445
83.4 -3.823191368204691 -5.073439872078515
83.435 1.917671914448844 1.5052564874048855
83.47 -5.138567055642914 0.5258923174203005
83.505 -6.039376326472386 -1.3857196672337917
83.54 -0.437137614028952 1.9448097760024314
83.575 4.957346602943236 4.010470957499161
83.61 3.7953905105111723 -3.5283867137774596
83.645 -0.6528334621753356 3.479137139997272
83.68 6.319016134912328 0.8861850890775163
83.715 3.77286802542001 -5.315084272576426
83.75 1.5658727038927278 5.422942455695329
83.785 -1.7434260506002364 -1.0018454300458455
83.82 6.771936528865915 3.0424543169482785
83.855 -4.553812572957305 0.2049252161635131
83.89 -6.231617687915346 5.59412771623524
83.925 6.836115017771524 -3.0916513511862025
83.96 4.7352693721255825 3.1343337781974103
83.995 -1.0072256553792762 -5.627242339194968
84.03 3.6303031897660976 5.382101692163921
84.065 3.6900579210725972 1.5936498040280682
84.1 -7.574748259121099 -0.39098463729769506
84.135 2.2323686227873463 6.704733841340948
84.17 -7.090611501209503 5.802908182573223
84.205 1.2976546089516177 -3.5761545791520977
84.24 3.9428448148805693 5.610958775897014
84.275 3.131269602875623 -5.448923904410213
84.31 5.087683071266673 -6.734844597914252
84.345 4.03227166398818 3.7656776209303118
84.38 6.1495944043149215 1.621814045350547
84.415 -6.264665155037774 -0.6507398124598289
84.45 0.2995200729365344 2.537761787581669
84.485 -7.986635502249072 1.965313207202998
84.52 2.8547210651555552 -3.846510410132117
84.555 2.101920752501657 0.9840687154846854
84.59 2.983224205862424 -0.3867778240827029
84.625 3.0913234671492464 6.862349187611256
84.66 2.8670009313105105 -2.861626920431112
84.695 -2.4797758171677984 -0.09075100700245464
84.73 2.003690260943939 7.0387460211690875
84.765 -3.7159836110557496 -0.3185912509634985
84.8 1.7696917498350935 5.320980502933139
84.835 0.13968757359783446 -3.7036679133498414
84.87 -2.6522864097433487 3.617404264959699
84.905 -3.235950338009257 -5.734764567288535
84.94 -0.19393228665369122 -5.436650695225218
84.975 -0.008189659942670957 2.6726676287901334
85.01 -1.7849903652259442 1.5330376303264188
85.045 -1.8286749153030044 -7.566930402858873
85.08 6.135926771926057 -5.816571654201889
85.115 -2.4802993057946523 3.1194462690476925
85.15 -7.902528584877796 -6.736773467100246
85.185 -6.8681858911664495 0.3958662008278413
85.22 0.5133283403915403 7.577162499004748
85.255 -3.676379903218086 2.2368485939472116
85.29 -6.291854005237745 0.7055454948976276
85.325 -2.076030281227327 -7.656915912411586
85.36 3.7301068486429845 6.667373350883176
85.395 4.257533029393159 1.6682792515650355
85.43 -6.5496306476895665 -4.044921242578532
85.465 2.4688662470047795 6.913470131500214
85.5 1.8608200246583966 6.752621498775179
85.535 7.067347645425265 6.095306861953079
85.57 -5.449834179557806 -3.737707325873604
85.605 -0.6634458382207562 6.871098522237336
85.64 2.745759827508202 1.235019786816304
85.675 2.3463293554752447 -1.350326271481869
85.71 -5.925440330178576 -7.426083414197112
85.745 6.716528493939913 -5.086019172893618
85.78 0.10943803473422165 -1.0404775825504657
85.815 -4.058937677910627 -7.422330480971832
85.85 -4.388634026657352 3.270396550308776
85.885 -3.689659002874974 1.1442235363572415
85.92 7.661402027293029 0.6625582282708695
85.955 -7.472459618943281 -6.7538689446311135
85.99 0.17965688558908965 -0.1514045848354968
86.025 2.267332813880973 -6.433079675297694
86.06 1.8559927537961514 0.058649219615599435
86.095 4.987068080987617 -1.8980345855217866
86.13 4.797388327770923 1.8576896183364724
86.165 2.4774504996523667 -3.0590240253755265
86.2 -6.975877994456193 4.077477522930341
86.235 -0.3579722071776672 -3.768366848464794
86.27 6.984804657882837 4.3030654505540245
86.305 -1.9947902160551134 -5.191074262381138
86.34 0.5783581309959516 -6.265865722942737
86.375 -2.995138961788685 5.274081079187399
86.41 4.6825774080309746 -7.7119394314980045
86.445 7.72454126955941 1.7613842500935615
86.48 -7.0287329813447705 -5.426687956604571
86.515 -3.451416332651025 -1.8133045075697396
86.55 6.762714609482142 4.166772445100605
86.585 -6.917614416211343 -7.589122192512296
86.62 -1.3408155604300642 -2.7318331032856396
86.655 1.5227748093599587 -5.738097408685965
86.69 7.514597416304335 -1.4529645718727124
86.725 2.1427148390363744 -5.746443653974605
86.76 -6.886834672668829 1.7395713288758152
86.795 3.4961326673889186 -5.9539342623416545
86.83 -6.027814889046898 3.8801285966363857
86.865 -2.677926385235441 -6.705483976070994
86.9 -5.523570818132557 -1.9289774607697208
86.935 -4.049642051380868 -2.9172880361514597
86.97 -4.0406413973397175 2.2842841064408326
87.005 -5.109990842224436 0.7680158437782438
87.04 -7.15256385663735 -0.8908736023715083
87.075 -7.9673343801643295 2.095391696245832
87.11 7.602771308920387 2.116112407985659
87.145 5.880602558473191 6.1348345703953076
87.18 -6.291832861456777 6.193009585097007
87.215 5.653100274038749 -4.80826482868499
87.25 -1.9058839388754265 -4.906990426576327
87.285 5.677269749092877 -6.143965344262488
87.32 -6.3284225671622885 -5.431274324006276
87.355 1.0592724297867733 -3.2811640256333376
87.39 -2.9618822842987864 -2.9422016785021476
87.425 3.172154896555023 1.8801312288011847
87.46 3.299757920879909 6.8675096304969845
87.495 4.538563058098983 6.732369982818618
87.53 -6.67841280658892 6.228982146501931
87.565 -0.3666772093327193 -1.14754106986865
87.6 -3.660783860944127 -7.705496602440528
87.635 6.765826864309576 -1.6552142871463662
87.67 -2.720077955603106 -2.2341847796788645
87.705 6.662590765865021 5.999706705461653
87.74 6.93777746398391 -7.492619588627189
87.775 -5.076708525157523 -2.8854256767565882
87.81 -2.5002387094110574 5.150463137199104
87.845 -2.492928307829379 0.6321231196826194
87.88 4.985360416249586 -3.5916955119274636
87.915 -5.967519625498433 2.445723586629887
87.95 -0.09638958420672061 4.458216773398753
87.985 0.5505603323417922 -0.5091596996172889
88.02 2.658647550676987 -3.4855547894569767
88.055 -7.845867245281948 -6.947472475031763
88.09 7.295840501031879 2.8669229292824028
88.125 -4.00081069931179 5.451525336342726
88.16 -0.3248282227209387 2.052011616604881
88.195 -7.069770537867816 3.3906175416550557
88.23 -1.2556401852436476 7.803743957542938
88.265 6.154007078098937 4.154054188690676
88.3 -3.4022079330645045 6.930694607025286
88.335 -7.67635749384991 6.028768526915703
88.37 5.152142105050702 -1.136971938032426
88.405 -1.7167149911572555 -2.151725899487145
88.44 1.8969174411859786 4.663113532854492
88.475 2.2457457833723744 0.6028064732167753
88.51 -5.6542916919286395 5.217374359363786
88.545 2.831903566281566 -2.014655969795493
88.58 -4.143076033764066 2.3139006939002016
88.615 -0.6784587753274636 -0.24176842546623867
88.65 3.4839781671291767 -2.1037487043283374
88.685 3.976816443344811 -0.6745725230845316
88.72 7.560421766064833 4.221363429317908
88.755 0.2702048104090782 -1.4521164926902888
88.79 3.779442510854736 2.6888145443324305
88.825 5.152951255825915 7.6144125735374
88.86 3.942475401514068 4.751405547457077
88.895 -7.203708698396019 -4.102279473433564
88.93 -6.936872514937388 4.002775045353392
88.965 5.549170243581818 4.313337602685879
89.0 -0.9954891530661154 -5.864774882315489
89.035 -5.600563484974595 1.0864894441070643
89.07 5.971088145593701 -4.727441958054355
89.105 6.561517344880793 3.844018288657182
89.14 -6.017407882376203 2.3514612414218448
89.175 2.6026075399131194 7.116692412013352
89.21 0.7485863624755442 -6.886129355426299
89.245 6.9783238921136075 1.3563456907074798
89.28 -4.656253167307662 -1.1094940309381265
89.315 2.716046805572784 6.694942482065709
89.35 -2.2216695436700515 2.893479757241101
89.385 1.9033755891354573 -6.659468708565171
89.42 -7.338068762138656 2.8028648749604024
89.455 -7.52681334137292 7.184275634440237
89.49 -5.086407219668192 4.341992461761061
89.525 -0.7776038625684141 6.957664252185115
89.56 7.7040003835900315 -2.3411050658408374
89.595 2.346559187846939 -4.378841459454016
89.63 -7.216874640061574 2.5095515304996763
89.665 3.5801801567370735 -6.877387556578242
89.7 -1.2411687093368062 -1.399564766285497
89.735 3.005030110569244 7.907753973985185
89.77 7.59636667870385 -4.140919377705387
89.805 -4.92191983223109 -6.624866409177001
89.84 -7.263422764646716 7.580272277552739
89.875 -0.454649155582473 7.551951480481117
89.91 -2.5559158219067424 5.418969003933704
89.945 -5.064378333824768 -7.591568512451191
89.98 7.111943317761854 4.048263521504234
90.015 -0.48929955867975927 7.8542674982543765
90.05 0.190649724679119 -1.576980891608006
90.085 -0.9074034972572385 -5.152554138768002
90.12 -7.331050480479636 -6.256765604618801
90.155 -7.010560821681015 -6.281369493337072
90.19 -4.7027902680314035 6.375069487835965
90.225 -2.406125164289179 -0.7234908960855506
90.26 -7.659494259154766 1.0513677684598477
90.295 -0.5470006128730542 0.9622179701683518
90.33 2.268537870279804 -1.2174492814938436
90.365 1.3979027497010197 -5.598893006073769
90.4 2.1763172042899637 -4.445008470856141
90.435 -4.893238576728745 0.6218979707850973
90.47 -1.9471887109620116 -4.997849115791851
90.505 -3.197893799303756 -4.818014886315545
90.54 0.6714760034746625 6.6014814850903605
90.575 -6.005404675273429 -4.831220261833474
90.61 -4.206665901042717 -6.320929772879785
90.645 -3.271064716776934 4.142013325166275
90.68 7.579248822158512 0.559185387431933
90.715 1.8769604705855478 -7.843624083600114
