! Created with skrf (http://scikit-rf.org).
# GHz S RI R 50.0 
!freq ReS11 ImS11
75.0 -0.6427082862711233 -0.3371568004877543
75.035 -0.9719604280808374 0.7295646814908381
75.07 -0.3302218822936629 -0.9452155812116778
75.105 -0.47572376498065494 0.4358641050779315
75.14 0.7169958915086754 -0.8987082524750931
75.175 -0.7343039637014828 -0.6824830427962081
75.21 0.2522685006221219 -0.7724720581214624
75.245 -0.4129811546327504 -0.9326232840714506
75.28 0.18681610532182136 -0.7108793430889877
75.315 -0.18259715262376774 -0.9122180418297217
75.35 -0.21020898462000726 0.17678463982422077
75.385 -0.7194082933930561 0.48906352378312823
75.42 0.11310079639441062 0.06368637823253209
75.455 0.6622134859520852 0.6012705246723682
75.49 -0.4544642750471264 0.20071289364877054
75.525 0.8270529844147252 -0.1384645645653273
75.56 -0.2632456968434749 0.44557446734757233
75.595 -0.5958614414434107 0.8839849958280428
75.63 -0.24957022737045054 -0.8271744323144339
75.665 -0.2547546543842829 -0.06279589814485687
75.7 -0.5389445089927614 -0.1698820791946276
75.735 0.22682592810351654 -0.9928838065391599
75.77 0.693921004901662 -0.9342254652792614
75.805 -0.10118587532195922 0.2381779971396627
75.84 0.6366379523510894 -0.2559993958544897
75.875 0.7411805337706199 -0.13060428408443503
75.91 0.2875291909209088 0.5994862525410798
75.945 -0.5769517615140665 -0.44523526655145274
75.98 0.7325236438563933 0.5721102117472634
76.015 -0.9884873816353297 0.8524584237815864
76.05 0.27157766503858727 0.5960735859662747
76.085 -0.15441132883873188 0.7294839658213348
76.12 0.49089736772620984 0.2241238406205237
76.155 0.0020100437397556625 -0.729073871275608
76.19 0.6069205825889308 -0.056952320132209966
76.225 -0.8007677175763694 -0.2649712792870853
76.26 -0.6478005317230198 -0.28183708641240535
76.295 0.7156954859335469 -0.6671361805821656
76.33 0.9430907746013066 0.8356332829520885
76.365 -0.7969869275013766 0.2825443413989783
76.4 -0.8606857223893734 -0.8303999798846644
76.435 0.558859323419026 -0.9864070133887364
76.47 -0.028012009941732252 -0.3013806536813999
76.505 0.022942785929190634 0.753778004662617
76.54 -0.5694721257909945 -0.027904929525754962
76.575 -0.8920569127440403 -0.9870239933055611
76.61 -0.8071900871739597 -0.9001942267567777
76.645 -0.9985834685426882 0.7745394299064456
76.68 0.6386376538626959 -0.7999400695071168
76.715 0.5459257255198136 -0.9919781791357065
76.75 0.26965726895851727 -0.8882385819924128
76.785 -0.6044444031893945 -0.6093060656332177
76.82 0.3490599298965207 0.13152726439113538
76.855 -0.621269372914391 0.016556446089684096
76.89 -0.7465918919404284 0.025502862380854863
76.925 0.6027371259625776 0.2549666713039547
76.96 0.5583455437092639 0.10161712539832535
76.995 0.9864883719256072 0.20451441077230204
77.03 -0.31646637203124794 -0.9057278847838621
77.065 0.9132261814102494 0.39167313012055827
77.1 0.05756906733468936 0.8847449959356253
77.135 -0.8064500161077788 0.9199961018048646
77.17 -0.702076312662717 -0.6405114290647691
77.205 0.8264364136505371 -0.20101600405320275
77.24 0.4169189626224148 0.6534174253819898
77.275 -0.7828893652061815 -0.7608693505692787
77.31 0.18379483350268333 -0.4159099007431837
77.345 0.8665787414730419 -0.8634464514621198
77.38 -0.6835590493971866 0.01613209523716752
77.415 -0.9787358299981359 -0.810004598906862
77.45 0.41022006814682443 -0.956132295746049
77.485 -0.39839582792715333 0.3654363529528364
77.52 -0.17267304217552049 0.4786636192380944
77.555 -0.021919815261865594 0.7869345889400863
77.59 -0.26784865218282694 0.7470152811643946
77.625 0.6396300661426897 0.052850920389147626
77.66 0.8881006361758768 0.2848283876469446
77.695 0.2429100214214197 0.8232775383316
77.73 0.1883758499969852 0.1036078215543128
77.765 0.8283457476479177 0.47825781439546144
77.8 -0.9830201167724 0.8367157481718672
77.835 -0.29982625693821885 0.7234096294010919
77.87 -0.10529018715677929 -0.1352815765524531
77.905 -0.9555029354231259 -0.002434840043894493
77.94 0.31583308265457255 0.9224431350978779
77.975 0.9063116174016506 0.8624313911949453
78.01 -0.2091803949311919 0.09141834804480653
78.045 -0.6164326773942852 0.42050550856172175
78.08 -0.8389105418945013 0.673357974569945
78.115 -0.9974783178736115 -0.6847128356758112
78.15 0.5908639716792305 -0.5159714451494237
78.185 -0.9183227735899704 0.050208894121220204
78.22 -0.4528886377571064 -0.31752661614703137
78.255 -0.7929992623443669 -0.7797620143816446
78.29 0.5718510815655296 -0.26406794878623385
78.325 0.7544370738606099 0.6981605655997996
78.36 0.6627494364305551 0.47474289971777384
78.395 -0.01200847676633865 -0.9204254625399297
78.43 -0.35965690687273133 0.5595333162591529
78.465 -0.7129343604752496 0.7258090878512644
78.5 -0.2038738060897871 -0.16484957084487983
78.535 -0.6299083929672793 -0.3712438151214328
78.57 -0.0439116837605249 -0.6048364766783774
78.605 0.4446753362861817 -0.5338620161438272
78.64 0.08889184300562314 -0.02707336930999782
78.675 0.9359076176891152 -0.06967777097228733
78.71 -0.7459512630837482 0.5123262479695174
78.745 0.9513799046698725 0.9693660468246166
78.78 0.3233309711586707 -0.3228174343546726
78.815 -0.4126994663443009 0.5848197583188925
78.85 -0.7439761511352299 0.539631385786058
78.885 0.28380898990362247 -0.9005873195379863
78.92 -0.9094550361869638 0.5801764761146604
78.955 0.21426453330407313 -0.3567046578007129
78.99 0.256895655167368 0.833184779737256
79.025 0.43327600108870046 0.6683263856800907
79.06 0.7716405047956107 0.6110912663862851
79.095 0.1750880808802393 -0.6539270508544028
79.13 -0.11870779602616666 0.42843269300300824
79.165 0.5272510443650986 0.7383869445363251
79.2 -0.6285548909192695 -0.2941774632067071
79.235 -0.5632180100980901 -0.1796032323346668
79.27 -0.6963588188281071 -0.36308418726764846
79.305 -0.03381342521462094 0.41378719989725865
79.34 0.9943917177574191 0.1462574956000111
79.375 0.38301767547517507 0.6631579613825556
79.41 0.7895456830190495 0.7658066246406996
79.445 -0.5813652527344837 0.06248526318821801
79.48 0.4373456188587652 -0.9599130810935992
79.515 0.28178948522601743 -0.4551330435002874
79.55 -0.5401215311592673 -0.09056079682775708
79.585 -0.8818869322861105 -0.3909491037013373
79.62 -0.8796974652048888 -0.8861152463821487
79.655 -0.3686756659841939 -0.8447835277561291
79.69 -0.13183475710976134 -0.1691173321010122
79.725 -0.9735688915002496 -0.9856944751483765
79.76 -0.5918260986696262 -0.5507156805515954
79.795 0.9724939858320119 0.2744917667700686
79.83 0.7243642284477787 0.9684167907735621
79.865 0.29330474041711563 -0.6162117997061833
79.9 -0.7059960231071813 0.3581314999420584
79.935 -0.5749471482645496 -0.026853580124572396
79.97 -0.8629260589153445 -0.601671732124532
80.005 0.6211982064264778 -0.05729150097794555
80.04 -0.5504504213346206 -0.3629156648836669
80.075 0.682844637749616 0.3988775896548318
80.11 0.278123961791801 -0.30637465698515
80.145 -0.8419816876202659 -0.7792739613885387
80.18 0.16412569620071316 0.7202326609088234
80.215 0.4936534259679737 0.4648917219108457
80.25 -0.7313404144115032 0.5159967220711301
80.285 -0.4771180617629802 0.9988173140123857
80.32 0.5474558402007743 -0.49815050717182796
80.355 0.3264289325268521 0.9178735771630444
80.39 0.08512393671606899 -0.8270787397475341
80.425 -0.8327073659660276 0.2892956814380907
80.46 0.765818760594261 -0.07601207435219925
80.495 -0.01218353466023947 -0.5986844830518241
80.53 0.786653674214066 0.17441819309647744
80.565 0.28658621939329265 0.28822960701653555
80.6 -0.0011069493910407235 -0.8422748061848608
80.635 0.12948765144530627 -0.8596554965224572
80.67 -0.6811145839380361 0.8138339155995762
80.705 -0.7348471347206111 0.3294229208470223
80.74 0.6588168408763249 0.7593483161678072
80.775 0.3174523700523515 -0.4142460293019481
80.81 0.8651368556000467 -0.3348014034085163
80.845 -0.3100727933516496 -0.5843067519735863
80.88 0.7198582085090606 -0.7262616627993335
80.915 0.1067805852548791 -0.05983354142799713
80.95 -0.7211210875651752 -0.877541922187026
80.985 -0.7174044829984596 -0.49848731080173847
81.02 -0.012386089173384907 -0.2205825516582538
81.055 -0.4933957526853301 0.5426855172639959
81.09 -0.27819885913388265 0.4958380389606243
81.125 0.9496823093545694 0.0978714009329531
81.16 0.16019076239885188 -0.647656540536035
81.195 -0.20819015877029723 0.013556387815580662
81.23 0.5382664821443077 -0.24071960133062476
81.265 -0.389845718278216 0.7338796112009907
81.3 0.9598849518202754 -0.6701640076214144
81.335 0.8863699260214093 -0.39955683890412974
81.37 0.04633021044559538 -0.3487665877085784
81.405 0.784567542736905 -0.7448140234370986
81.44 0.7961427818214868 -0.0779542571671572
81.475 -0.8278120052874802 0.8499383958027571
81.51 -0.35425678459531085 -0.7550544006875373
81.545 -0.4588936112520574 0.717601059192567
81.58 -0.9700297890020133 0.44922858875042704
81.615 -0.054118464237395525 -0.7650979125604178
81.65 0.7255761344634939 -0.5350765400003019
81.685 -0.5093090986519713 -0.8065260237915253
81.72 0.8309350373617685 0.48832697457305985
81.755 0.21768480188458272 -0.2507611739357998
81.79 -0.11228040437238418 -0.6791923019572685
81.825 -0.06193811480258926 0.7629041143161979
81.86 -0.5498186114683996 0.3605755515835869
81.895 -0.23103916845228856 -0.5783532556705535
81.93 -0.344455661958293 -0.9391613728899002
81.965 -0.2176435610164129 0.0182382505806713
82.0 -0.4532065839858719 -0.49475252340197184
82.035 0.41693426231970254 0.37595872590931934
82.07 0.2813819526280339 -0.36503375204222177
82.105 -0.8985689688919254 0.5847471487889906
82.14 -0.01575876523044717 0.8330038068249626
82.175 0.5926121548705197 0.8468214673554539
82.21 -0.9629598881767896 -0.84135208057823
82.245 -0.20040342032340197 0.9533963375657399
82.28 0.7863260422236238 -0.366651138246501
82.315 0.781869553500701 -0.8126963199067798
82.35 -0.03277029397832609 -0.5619412906470393
82.385 0.4436423107490193 0.5377338273498724
82.42 0.255117439956849 -0.46449844217105185
82.455 0.9598464048316329 -0.8278786517461811
82.49 -0.51100528982579 -0.7218635459965572
82.525 0.6960739427651779 0.5947279323385257
82.56 0.9487564113521316 0.16920430468118353
82.595 0.2503451298569699 -0.26891714978771963
82.63 0.058548450372502225 -0.5746763869465885
82.665 -0.13113452198410291 -0.19057975505729052
82.7 -0.05013168824443004 -0.43250214773400186
82.735 -0.053333636070411305 0.38997693582003556
82.77 -0.7203220400948267 -0.5545494029893594
82.805 0.9646531806186247 -0.3482053639789786
82.84 0.6515659189086855 0.7625707481652433
82.875 0.32688072975306026 0.7218967280688957
82.91 0.09874719999954062 0.19166775660957258
82.945 0.20617865540521896 -0.2523433756712661
82.98 0.6380920158889196 -0.8887760931614177
83.015 0.16439643599609965 -0.09984972162947892
83.05 -0.004380773164626817 -0.8099124891950931
83.085 -0.5140829819837021 -0.42077041097369206
83.12 -0.8954901898383381 -0.06785830188452024
83.155 -0.16412310421670995 0.6864407540990596
83.19 -0.8201354265115606 -0.4666935698357684
83.225 0.9205652933606268 0.04397426455130393
83.26 0.6661181703791021 0.9514613570409443
83.295 -0.9869421901865203 -0.37563311357980855
83.33 -0.5694935767054616 -0.6898351995722103
83.365 0.6693826909637992 -0.667127112644955
83.4 0.8771051316836151 0.28907270542714114
83.435 -0.2926774588991854 0.38797514938946875
83.47 0.33193518547707335 0.5905052426130857
83.505 0.8650667659659499 0.8093653849751916
83.54 0.09684016520691285 0.8810217399090565
83.575 -0.4430837542606476 0.5277395505489042
83.61 0.2947305315265958 -0.32312652457473723
83.645 0.05336942406499645 -0.296070484319533
83.68 -0.7230493845972621 -0.6614117225745477
83.715 0.9938652336334812 -0.3813897822011927
83.75 0.3709012161037737 0.770717735876457
83.785 0.2790344068086299 -0.3241569641665274
83.82 0.8159959118337978 0.3996511516907608
83.855 0.6643871138946766 -0.8102912252524666
83.89 0.9885672976158328 0.3684167702918031
83.925 -0.5005546144127782 0.20720134358356668
83.96 0.6568364194943268 -0.7513255542836086
83.995 -0.9140272923822972 -0.9386729922049475
84.03 -0.49298077225394477 -0.7703168092605781
84.065 -0.42273098020153665 -0.3818453550952141
84.1 -0.022886497647018667 0.6637638945802669
84.135 0.44647799868311444 -0.36377189902322815
84.17 -0.7198926615127066 0.8689296199318961
84.205 0.4672787008652004 -0.4704505201269993
84.24 0.36244358007014976 0.14239151352022894
84.275 0.4774617490457256 -0.15702986525867613
84.31 -0.114298721307724 0.5220258441531223
84.345 0.5375184663171855 0.052887991027603
84.38 -0.7365315432068524 -0.348599087040272
84.415 -0.24730728261966495 -0.933835739184651
84.45 0.5944330517178902 -0.8381970936342777
84.485 0.4897292430844171 -0.38824947611827665
84.52 0.9299189916737831 0.2005242045531872
84.555 -0.16062026755735848 0.6331928537532348
84.59 0.04344514153244128 -0.03960447266104383
84.625 -0.3575537058157452 0.15421138146679247
84.66 -0.5488927024629175 0.945901819812371
84.695 0.17513996312190705 -0.4273317982006184
84.73 0.780612285988791 -0.21933075558166015
84.765 -0.06849802547247275 0.6400912036423738
84.8 0.9434748846538743 -0.820848222567498
84.835 -0.5366518617985696 0.7424971332965862
84.87 -0.3433821661097507 0.22447743648490337
84.905 0.9795995443156755 0.1640819921547818
84.94 0.9263558630228677 -0.9858627540313849
84.975 0.7838436400842128 -0.015998667725636517
85.01 0.0638287567846274 0.022649423211910102
85.045 0.8383963218638604 0.8672901488325342
85.08 -0.8680271702047753 0.027503143591796952
85.115 0.6276929283296566 -0.8192995585357199
85.15 -0.5114466718515327 0.2812142922883736
85.185 -0.9095127249855368 0.8466118147970707
85.22 -0.8223076691846136 -0.84984762409492
85.255 -0.403461934163045 -0.49228715301566073
85.29 -0.1086212023229487 -0.657369568111233
85.325 -0.7407232239263923 -0.10746995465762255
85.36 -0.01494818125783226 -0.7657140589137568
85.395 -0.20397112887298618 0.2389286788113043
85.43 -0.43991504113926294 -0.7133559268277696
85.465 -0.5414777660827155 0.017982528460898095
85.5 0.06692192504988248 0.5634015049543677
85.535 0.2915961462341141 0.7851784414738514
85.57 -0.6210913435450378 -0.5724346654512731
85.605 0.5578412042259424 -0.029279382216936822
85.64 -0.8796044174296873 0.9925739343121109
85.675 0.9107663832417252 0.413476860285765
85.71 -0.38759326015494056 -0.533447197062294
85.745 -0.4170046357011876 -0.03596986528042945
85.78 0.15131863701863413 0.4070089575733471
85.815 -0.29475444871057155 -0.8689414315673707
85.85 0.5359247832004916 -0.949324041807371
85.885 0.8740141186670398 -0.7198272305902531
85.92 0.0989972443748901 -0.9124466904396615
85.955 -0.4328375784466749 -0.5086772492087355
85.99 -0.8104711985850568 -0.40104354379162066
86.025 -0.22092789767511367 -0.7056464236074413
86.06 -0.8210926616373346 0.6885425774842298
86.095 0.8210852537099558 0.7887570308367011
86.13 -0.3081707578753541 0.3931129692154598
86.165 0.3601976205822057 -0.8132899972527159
86.2 -0.7011878517178085 0.12975102994281795
86.235 0.6360590542147895 0.32988392271705935
86.27 -0.7231799913074426 0.7029135151474799
86.305 0.9309340339604337 0.5685976409602269
86.34 0.2153910959030254 -0.8497876635535944
86.375 0.2652661551102664 0.48625755154004713
86.41 0.21192739568775454 0.39093436199327636
86.445 0.6916407188367435 0.7120536500869492
86.48 -0.35068924332987494 0.4867573626754371
86.515 -0.8254359108449356 -0.6377719352646325
86.55 -0.571205785505468 0.4017291526431641
86.585 -0.15739999187672415 -0.20562640512271546
86.62 -0.8639995252643171 -0.06732096809492738
86.655 0.12110922347386754 0.4983764116263949
86.69 0.31953869224487885 -0.652187469292896
86.725 0.9594488795997436 0.3633945143244781
86.76 0.828404677184186 0.518979914532681
86.795 -0.8550732652469202 -0.840587879749596
86.83 -0.649519332615279 -0.810707926711808
86.865 0.11288032832697437 -0.6558776637268784
86.9 0.9456426832150588 0.751679606207792
86.935 -0.4809260366899395 0.8306791641743523
86.97 0.7361975839124315 0.5851563855699808
87.005 0.5529321968776617 -0.859164452396953
87.04 -0.44975540033760275 -0.4551253812519631
87.075 -0.4194468772343034 0.7732477415806607
87.11 0.7922352095106475 0.35092625979128855
87.145 -0.07809404916570761 -0.13154403195229136
87.18 0.45161688351395046 -0.9531900535762521
87.215 -0.40466672701572026 0.144897406528117
87.25 -0.6451149911056311 -0.11540624530473398
87.285 -0.9408639998359105 0.7505781188736189
87.32 0.6412108525907754 0.2855820159033611
87.355 -0.7540920007815664 -0.9886956065523373
87.39 0.15904059462984943 0.9062755370093454
87.425 -0.5990394800259451 -0.6340400638609633
87.46 -0.7340421511067818 -0.00499842002258899
87.495 0.507040958507158 -0.7262345414811033
87.53 0.9055263878167816 0.5445472922895769
87.565 -0.864342559520918 -0.07688869461391579
87.6 0.0327660273833561 -0.7124463495776401
87.635 -0.3792421699109836 -0.8189432076501015
87.67 0.2726614253976012 -0.6089746616263214
87.705 -0.7487531490226109 0.040727349167849924
87.74 0.8297781892154099 0.2739176540173365
87.775 0.6428101861493933 0.8231221774413866
87.81 0.13000294974075755 -0.19365821349782664
87.845 0.05969273539439501 0.885848214940919
87.88 0.7136305385503217 -0.49455100594335044
87.915 -0.7883336707185011 0.1973758169961759
87.95 -0.9078284012080085 0.4786291248597476
87.985 0.4848502221585851 -0.05268047917455276
88.02 0.950481350596009 -0.02730326550560469
88.055 -0.24973159220777053 -0.3794577909969403
88.09 -0.7135135947603655 0.12792533193965316
88.125 0.2866183955670112 -0.0947012987206799
88.16 0.8639474347798803 0.23814709674728785
88.195 -0.8833259832017959 0.5336427844653902
88.23 -0.4596629075390972 -0.016995274865124754
88.265 0.4011262534890776 -0.1605057534811174
88.3 0.9066611563547304 0.5040729133999013
88.335 0.8396376368411822 0.49388452127110494
88.37 0.3005497178602783 -0.7051481535142259
88.405 -0.46241725734419536 0.7533308941256742
88.44 0.541603848558726 0.04070689416311435
88.475 0.656293590061565 0.07278670141264132
88.51 0.4980537922097219 -0.2789258593824733
88.545 0.5768888301793755 -0.5805258718525264
88.58 0.5918011160801122 -0.5754436449196019
88.615 0.5254237965713289 0.812130143838006
88.65 -0.4837784831477372 0.035216757768408824
88.685 -0.10115562858004457 0.36099056163504506
88.72 0.2623411615164106 -0.820403295746793
88.755 -0.7672229356686431 0.25007431567642247
88.79 0.47819835577760683 -0.9256185592496442
88.825 -0.8993941284490943 -0.4792833283872606
88.86 0.45183858405288446 -0.35285910488682015
88.895 0.8896743258921309 0.9735582386784045
88.93 0.4095282031863787 0.5817605874975353
88.965 -0.847635365491971 0.797873553178621
89.0 0.9593529602013491 0.26019483761501205
89.035 -0.13987266499482032 0.6648178826518656
89.07 0.24874893222524364 0.544019640709229
89.105 -0.9366631182854208 -0.7929301065581973
89.14 -0.16053315129959533 -0.12430605527501659
89.175 0.692182253134624 -0.6433676477855197
89.21 0.04053517125540407 0.09614890828944556
89.245 -0.520482485872479 -0.8944569129271049
89.28 0.32106017714221813 -0.41685280761412336
89.315 -0.23276475188323764 0.6022045932384523
89.35 -0.48607826078427707 0.5511985412094238
89.385 -0.4980583666237022 -0.4028735494720481
89.42 -0.5078424446732104 -0.5745258594578302
89.455 0.04003779458040868 -0.5759187750111576
89.49 -0.5637573625604344 -0.7934019900647913
89.525 0.3001877140156157 -0.7985272019271006
89.56 -0.13049767977313742 -0.5873568431496612
89.595 -0.9551214707611837 0.6525428361059635
89.63 0.93973198055998 0.14957732129541856
89.665 0.340360491258602 0.14845245094087467
89.7 -0.07578168182746614 -0.3542507876942753
89.735 -0.050466143301791444 -0.9690999681577286
89.77 -0.8262345925468308 0.5873042040864962
89.805 0.5093114845998767 -0.8399954080479319
89.84 -0.5503035098481672 -0.05202693917828727
89.875 -0.5006243002054069 0.637110683154763
89.91 0.35568924629188325 0.6357748616663914
89.945 -0.5488703201896021 -0.9528437346490706
89.98 -0.7989705991114844 0.5582377764486122
90.015 -0.8135906356464542 -0.18495408901736776
90.05 -0.011550689489057131 -0.7212735109565163
90.085 -0.7387882886445107 -0.6904758981229087
90.12 0.8301142759260096 -0.16798583134226552
