! Created with skrf (http://scikit-rf.org).
# GHz S RI R 50.0 
!freq ReS11 ImS11
75.0 -5.683949497566573 -3.894982380482756
75.035 2.9903437971029887 3.96706784864782
75.07 0.7238349308821537 -1.1793981728364948
75.105 -5.42804509615592 -5.03358463521645
75.14 5.474028224446273 -3.1967728131787827
75.175 1.742464522350304 4.1387319449770175
75.21 -0.4611094908424991 -0.9471019298527046
75.245 -5.548218700985402 -1.6610456542209753
75.28 -4.767079661504546 4.423224764677973
75.315 1.4332958171608023 -4.998391531502799
75.35 -0.8890934443645868 -5.313397039876608
75.385 5.1394545388209565 -1.7670405450465454
75.42 -0.7370371959793154 3.447432248939291
75.455 2.530760681530401 -0.9255100702123173
75.49 2.4397605763263415 -1.5791945963893244
75.525 1.4649856287730754 0.7811802433486683
75.56 -1.4962799324592533 3.6831909090882466
75.595 -1.5832008517278524 -4.791434062321009
75.63 -0.008138547769578786 -0.33881709506358737
75.665 2.3006369137944116 -5.032428290496639
75.7 3.3835677422406247 4.8287559792216905
75.735 -4.259558455149593 -0.6433861082216361
75.77 2.1777744011386972 4.287974168428541
75.805 -0.8419061186053929 1.3279309243741824
75.84 -5.65552368301481 -5.0525094232534205
75.875 0.3188746672409071 2.685492407132021
75.91 2.532185632114506 4.438007309021693
75.945 -0.2784706032841058 3.935103287739116
75.98 -4.275476077537338 3.454387727073098
76.015 -3.858714235645936 5.9354739518589295
76.05 2.3509585972110236 2.4771056168681316
76.085 3.0386706769957863 0.33247730587432
76.12 0.8189284141806654 -1.191049481782612
76.155 -3.0934409585345497 -0.1872230132953141
76.19 -3.0788582338725954 -5.581054303527411
76.225 5.214437744236598 2.3765952286161607
76.26 -2.3600477752599627 1.0942570464786576
76.295 2.211821992489086 -3.0392995177997593
76.33 -3.5247876584467854 5.953817933782612
76.365 3.1342503341093764 -2.7123934906467873
76.4 5.804013882350062 3.4045476783750814
76.435 1.266359030644828 -0.9105064344937501
76.47 0.5159354040263464 -5.706504244406567
76.505 1.4717060467267644 2.9126286048100676
76.54 0.475699684533891 -5.602382365481784
76.575 -1.1336930893426547 2.9954890933245437
76.61 -3.7374137810024233 -2.0629970033553495
76.645 -3.6607212774347246 -4.616925047636752
76.68 1.39993106814617 3.5486634981810514
76.715 5.401532881795086 -1.4881438668582665
76.75 1.633194424656092 -2.230429759203165
76.785 2.4906468893444447 -0.9876955378947825
76.82 2.3650526413966557 1.5726373589566176
76.855 -0.5299631871868224 -2.347583408905928
76.89 -5.217139593178105 -5.238503310642468
76.925 -2.9341849447018244 0.3130772875784227
76.96 -5.522041546647937 4.334974122977865
76.995 -3.2049264987169868 -0.6535225460099343
77.03 -1.458991036912383 4.349046744342985
77.065 5.386718423042169 2.9759653648841433
77.1 3.784083368317439 -5.85778787367482
77.135 0.002717065565860821 1.6306318944954943
77.17 -1.669365931336443 -4.808963863933615
77.205 1.859517308450739 -4.3412630165981225
77.24 1.9029131121160372 -3.045252033252815
77.275 5.608253938549671 5.581642212573129
77.31 5.630157196039502 -5.344186378736364
77.345 -3.8563980113241296 -1.3139715716588927
77.38 -4.371923207372433 -5.89037294319442
77.415 5.066032058091579 -3.76675380251839
77.45 -0.42580463803165847 -3.099549229034212
77.485 -5.945070142067426 -4.283116538184067
77.52 -0.4439410604500851 -0.5757247206159875
77.555 -0.6184082324164497 5.394454141184436
77.59 5.907199933440109 1.771778666268057
77.625 -5.723937990608828 3.932956381112799
77.66 -5.6660709737389645 -3.897087454040737
77.695 -1.1271350858197127 2.8020259932156537
77.73 4.970621942660257 -5.836419451646412
77.765 2.0714083142410034 0.3447478812111413
77.8 5.712383907393226 0.48088142574581827
77.835 -2.166128994284522 5.4629434120467995
77.87 3.5988649556740095 5.713976908956768
77.905 -2.229527618396253 1.9301937256428787
77.94 -5.312960365975012 -4.490144716958002
77.975 -0.052015733237364525 -4.589656506323076
78.01 2.786261247118679 0.546866315035123
78.045 -4.057740445407886 -4.070483552453458
78.08 -3.4648721137641423 5.895609150075428
78.115 -3.3445874234178143 -2.925931317924292
78.15 0.4207493003369511 3.793465500908712
78.185 1.0396430346242762 -4.371254827025323
78.22 2.128969698239414 -3.4612610321080313
78.255 3.6073755756324752 1.1465447421506827
78.29 4.634057975378662 0.9861668410373583
78.325 5.784755306711226 -0.5730681348276048
78.36 2.684239083938779 2.8789015865199095
78.395 2.7086474384835335 5.258653423774887
78.43 -1.956420752219362 1.8755276144064448
78.465 4.118041343369294 2.9180102283390847
78.5 2.2573592931495194 -1.5416457040587663
78.535 -5.785631935072859 3.44132966031579
78.57 -5.13094458135105 3.8668675823931355
78.605 -1.4277131655783721 1.8339225726189325
78.64 2.6542882042725733 -0.9373901888210754
78.675 5.34104821305312 -2.5128084979565455
78.71 4.907560593635229 2.0287248718193585
78.745 -4.057513158315237 5.5193457260620225
78.78 5.648369201125292 1.8801922319020479
78.815 5.752112502833828 4.436706452346089
78.85 -3.932951564139945 -1.202916440529703
78.885 4.084911420988957 -3.255392845557412
78.92 -5.845499450772037 4.009038408968284
78.955 2.8231382513899517 -4.453406856185424
78.99 -1.7514205170366752 -1.4274041363558085
79.025 0.42963792716086857 1.818889911000383
79.06 5.365368450224388 -3.780184615156953
79.095 0.24540205166361329 -2.2112624768686655
79.13 -5.008337157012573 -2.1097866905311258
79.165 2.767090735928776 4.7620156302419465
79.2 -4.042959263035927 -5.8399551114950885
79.235 4.679670510246165 5.17039077760806
79.27 5.473774751454501 -4.826950177035483
79.305 -2.7702762559468317 2.37497375000329
79.34 -3.8112838857248224 1.0418827203197751
79.375 3.333151092824101 -0.3400603795878867
79.41 5.200823408870212 0.5112827404003255
79.445 -1.323827512259534 3.5959971835705207
79.48 5.5869481728372445 -1.4611658722379919
79.515 0.3979966277822924 4.5359492278769125
79.55 3.3786508306770644 5.624647336007994
79.585 -2.4400682357335786 3.907282191642592
79.62 -1.4021684065955462 -4.016716381129348
79.655 5.8541277526002204 -0.11042481354493594
79.69 0.8794571414372423 4.133548917927449
79.725 -4.707636618652966 -0.9918278971299488
79.76 0.8084056640153117 -4.503702864310274
79.795 5.78074305113112 4.449476784968092
79.83 -2.932409492306816 2.282563601685803
79.865 -2.8878557135200604 -3.4470386408465705
79.9 -1.29514130029412 -2.935337481675451
79.935 4.554463555507917 -0.49018534703384153
79.97 1.8448350703536964 -4.646874420473658
80.005 -0.8928973739607122 0.12992032709169754
80.04 -2.0451531479157716 5.562683880770029
80.075 3.885015700463349 4.415712978810498
80.11 5.44321746116006 -1.0244461832762304
80.145 5.004864697628503 -5.205357704699027
80.18 0.4859596567942184 3.7035335132899037
80.215 3.6903560439720837 4.6922455806275325
80.25 1.2332749865015522 -0.3821835719497737
80.285 2.714820894495865 -5.973413186771586
80.32 -0.28622703901749746 -0.2281193820270615
80.355 -3.1358162809377923 5.343028956173153
80.39 1.3537945533081772 -4.4066312918491395
80.425 -3.0176104374185275 -0.4180868791432508
80.46 2.791755685143541 4.6746000062008495
80.495 3.396700958171551 4.030640514505769
80.53 -0.25129947039091505 5.751702427506018
80.565 5.646688076696289 -5.376933756324536
80.6 -1.081354258332499 0.10294366835469093
80.635 -1.8150865814155144 -0.950609874441962
80.67 -5.689011315477865 -0.8047569967712227
80.705 -4.221593979581774 3.4043764221437467
80.74 2.372682435267764 -5.1020410686954385
80.775 3.5975705988857163 5.560495764645088
80.81 3.4398185583194074 4.367393399318837
80.845 2.3968535802395423 -3.3979578263436157
80.88 2.224369216760367 -2.644066363268092
80.915 -1.4549426149531213 3.836185029442077
80.95 -5.641441227535369 0.31128294388770383
80.985 -4.152491740321503 0.429103841464725
81.02 2.9156475139135276 -0.8005545147521023
81.055 4.725108662420747 -0.31621699222024935
81.09 -1.1160857580834422 5.1364321853039865
81.125 -1.4527011234732536 -2.7206979858404496
81.16 3.387346408659428 -3.981971018115494
81.195 3.097209064230489 4.668813747523789
81.23 -2.6601664016262556 -1.4157865536591312
81.265 -0.1966075459296941 3.820148302557227
81.3 -4.2801721846001115 1.8071708736801062
81.335 -5.6889884214654165 -5.634038476815315
81.37 -0.46394059892632233 2.023947953406775
81.405 1.9309841746059706 4.047749423962992
81.44 2.4654328557107297 -1.3674732599161308
81.475 -1.0951063722464651 -0.27871175522058556
81.51 1.139441764062151 5.316542240074968
81.545 0.436693586674326 4.784067998802696
81.58 -5.927780885251387 -5.283410185756652
81.615 3.9369790456186813 -0.10601855747931888
81.65 -3.1134567242613955 -0.1204020815864566
81.685 -3.2794949892571825 -4.700948656333735
81.72 -2.359097859954504 2.8539208664448528
81.755 -1.42862005708084 5.949357568028457
81.79 2.0799868011980713 4.638029602589977
81.825 3.5404015974281196 1.6151345504748624
81.86 1.2198696207195696 -1.7467630090705173
81.895 -1.3064661002797644 -4.533212205318414
81.93 -1.1812165881391867 -5.168126036413768
81.965 3.4371579881253953 5.075602462792253
82.0 5.94321130657211 -2.278678855660196
82.035 1.1132576029471615 -4.150196857194267
82.07 -0.6429877584078638 4.504117143857017
82.105 -1.292444253752588 1.1078907461214418
82.14 -3.208137920575648 4.6436435540117085
82.175 -2.0409456350735184 -1.4045417545007255
82.21 -1.2904212661736478 -1.6679944734595655
82.245 2.635167275230061 5.059965531390108
82.28 -1.2526216527757943 -5.141841305304002
82.315 2.043894804930863 0.2096734795901014
82.35 -0.8872358474268385 -5.502881756802468
82.385 -4.51393480121551 -0.08013187013401701
82.42 -2.8631199430664753 3.993176784287678
82.455 -5.7571117091165505 -5.67996551815909
82.49 1.1496456638445616 0.9383974346003972
82.525 2.923147761589218 -1.6094420172204682
82.56 -3.34090719729461 3.8135527209790987
82.595 -4.305920077954008 -4.591143538073589
82.63 5.0319600039813945 -2.5099099444559454
82.665 3.243934957942155 1.2541658153489572
82.7 -3.3489205149115118 -4.618907301179542
82.735 1.8915782248110342 -0.8110288884111871
82.77 -0.28266950023319337 4.781033356247104
82.805 1.1768782538951554 3.039532588518813
82.84 0.3685334625571959 -2.748294965825839
82.875 -0.140808912399351 -0.4679957919760298
82.91 3.6240306417599886 -1.5187614939087117
82.945 -2.08355267333758 -2.692846991158774
82.98 -2.873386600942039 -4.982306035444086
83.015 -4.84237475337739 0.9339860262053943
83.05 5.39361498394555 -2.797306044253213
83.085 -3.1462007100929643 5.627249691709579
83.12 5.281137807615562 2.9578322171622866
83.155 5.785564351605806 -0.2375593735612087
83.19 -4.9670403474164715 3.680322337991994
83.225 -4.453677474798518 5.759772515694275
83.26 -5.224238751851441 1.0524979594662773
83.295 1.4717374690980773 4.051247175008309
83.33 5.561510940430539 4.277898651041486
83.365 4.4788076913280825 0.8914083972990312
83.4 -4.377227257836972 3.8037941064138203
83.435 2.0632513385737608 -4.775842433464739
83.47 -0.939486644437328 2.493228321162888
83.505 -4.882398720632107 -3.068740375724128
83.54 -5.832689698084884 2.036623302067944
83.575 4.386309388043602 -0.6701852188413611
83.61 -5.703252305008471 4.967326423230565
83.645 -1.603809227322111 0.4509450860547912
83.68 -0.6696231356885418 1.8835871417177241
83.715 0.0015250078930861832 -4.903787612433401
83.75 -3.9421446245332654 -0.22492003172864772
83.785 -0.9542174070467362 -2.607096647477142
83.82 -3.8125756303712968 -0.3472772097530168
83.855 4.513782277460082 0.7339839687538179
83.89 1.810308953512386 2.941162034986271
83.925 -0.1409909984772213 -5.013226794471773
83.96 4.353051935053594 2.5012817386372523
83.995 -3.8253065753873576 -5.171601668578505
84.03 2.8130438427445807 -0.4622229749190909
84.065 -0.7074271978611519 -3.2154470066797076
84.1 3.1735964268621966 5.488623404301525
84.135 -1.1122274553711926 -2.9133511897516517
84.17 -2.7278464381847156 -0.5240002671540411
84.205 0.7657889732575285 -0.7136622570286657
84.24 -0.5267526031921528 -4.411595485562664
84.275 -1.1877435810085917 -2.2826940947281122
84.31 -2.4339713441354904 -4.889487840258508
84.345 -4.424569692711273 5.072831431876905
84.38 0.8133404341938548 2.6044662284921514
84.415 -3.394443728026475 4.663894602393295
84.45 -1.767948202485389 -1.5662387771494735
84.485 -0.5846425846396874 -2.4235021683026003
84.52 3.352941751386406 1.5519698365722787
84.555 1.449067326560134 0.8550619335399223
84.59 0.9929431469214229 2.2942378866459543
84.625 -2.431281127558759 -3.0810367979694573
84.66 4.184187869362907 1.8956983899054554
84.695 -3.7343333098162717 4.635602675577555
84.73 -0.299782853979786 -0.09929241282427936
84.765 2.101997470817722 1.0596905577154363
84.8 -3.0633202463448144 5.814752176755462
84.835 1.6134548005363536 -5.257579942103577
84.87 -1.3812192132022836 -5.651740704939339
84.905 1.411021279309531 4.64567234230373
84.94 0.7418587845175719 1.5874537324364026
84.975 2.1874275252790523 0.30100826333318853
85.01 -4.8339285683671145 -0.624911128067458
85.045 -3.3870498289420845 -0.4774950036483463
85.08 -3.6813392351571395 0.4755660959089809
85.115 -2.040046185124051 -4.278416080365719
85.15 2.5715380737822455 4.398667713333829
85.185 0.6962522351266061 1.3269641081703814
85.22 -2.562187808780337 -4.057424018491198
85.255 -4.550182116510453 1.7542072106528868
85.29 -3.0370832163105677 -4.785538100010889
85.325 4.704273335058285 4.202342863060994
85.36 -5.924675624270776 5.743434150943296
85.395 1.5629019194813063 4.225093954585015
85.43 -2.3696941172942183 -1.7234721829296582
85.465 -4.290114680257531 -4.7051835259229495
85.5 -4.247886362351135 3.9728899570538374
85.535 5.971576127947406 4.737177893518102
85.57 -1.4859861904567393 1.2298152142266696
85.605 4.231072927928114 -4.774335641400798
85.64 0.6561044254309141 -0.9651417163040428
85.675 5.887469268784628 -0.46738137201107177
85.71 2.7241731435621275 0.450380316358022
85.745 -0.18617582425315238 -0.38052397869993104
85.78 0.3867948924141218 0.3471007555856005
85.815 -3.5222938660070495 2.8690217070341326
85.85 -5.945933500420499 0.8031302444004016
85.885 0.16045043371746592 -0.7456044213542752
85.92 5.640110807256874 -2.5060942342393715
85.955 5.073697622924097 3.7294246288333683
85.99 1.6495589570317488 -4.238344508687515
86.025 5.107897689845823 2.728542485205539
86.06 -3.210939481425184 1.492446936897676
86.095 -1.6730347182855234 -5.321366818621202
86.13 3.700871245011889 5.4610852482358725
86.165 4.265871081508537 3.34336877438317
86.2 5.068390013664768 1.9520137045425217
86.235 4.054811681149952 -1.0674188656232326
86.27 -4.364670359185246 3.592798925389161
86.305 -0.0423837070442441 -2.4276714416256344
86.34 -0.7316488258133118 -2.033118876784027
86.375 -3.4377745067164915 2.959107493790384
86.41 3.419094056565727 -1.8702036810337264
86.445 1.721635610482112 -1.875148812552991
86.48 -4.382539090711572 5.102479826997098
86.515 2.2728353928727114 -4.6402886311107725
86.55 3.6629259691978517 5.763306164097198
86.585 -0.12708035662962436 4.881455690407952
86.62 1.1595737396493409 5.936331719679468
86.655 3.8646487484195604 -4.479471125473245
86.69 4.036340600361947 -2.546976538147934
86.725 -2.4837545934893095 5.35591072262079
86.76 3.280895818602696 -3.3350632063682197
86.795 -3.018601674948466 -2.4354145362181407
86.83 1.5572413786022836 -2.784206065128715
86.865 5.7380075062008356 1.80625602526449
86.9 3.4968558888810604 -4.680541734562471
86.935 -4.488439577980978 -0.2672569608888109
86.97 -0.2619136233687489 4.550312527569834
87.005 -3.468309339129928 -3.7867878669726918
87.04 0.649412242768979 -3.455540378144024
87.075 -0.22698642283800963 -5.321312681250792
87.11 4.578867591725805 3.3315622957458406
87.145 5.45818171095004 -2.079961937764759
87.18 -4.418999527997649 -5.660106085733742
87.215 -3.4810250734748474 -3.045829380646355
87.25 0.7162811390693324 0.006226820768262975
87.285 -4.785964440849698 2.831565838474518
87.32 3.2221491399978257 5.348599577308031
87.355 0.6556982470233619 1.3830710684801657
87.39 4.2348745862850175 -2.2053127047002947
87.425 -3.7588352865999863 -5.078691898120356
87.46 -4.1586066677168105 -3.311747074142349
87.495 4.890171525880653 -4.75204448066828
87.53 2.4050493919232117 -3.5497273361287074
87.565 3.0058825161578007 1.8962304600531508
87.6 -5.5174353772332925 3.7177255261350965
87.635 1.737315577132685 -2.6423232363175795
87.67 -4.366762338534863 -3.8640323094194287
87.705 -5.954913341235214 -5.411230873715095
87.74 1.7679162966202324 -0.7606912509535761
87.775 5.228540520964491 2.588103973412031
87.81 1.496352826900527 -5.513371717117625
87.845 3.2752305626057265 -0.6595116985807707
87.88 -4.24822834254582 5.645440490574472
87.915 1.8774531880802305 -2.924840698305245
87.95 -3.664446096076172 -5.256448510076595
87.985 -3.9817975877513736 5.471584706343813
88.02 5.275122411392315 -3.881836908666057
88.055 -5.886643137060364 5.183715683873448
88.09 3.657267489256611 -1.7230268198563232
88.125 3.0560287443136205 5.060265469154397
88.16 4.823026928900017 -5.122331231184029
88.195 5.097708232964816 -4.481037473577885
88.23 -5.618442569444072 -3.524912808233474
88.265 -5.724151511132295 3.3887302343293086
88.3 2.9613722921136416 5.616281316634243
88.335 -5.359754863102274 -2.2763334751223905
88.37 -2.9036057786963614 -0.2542478388930842
88.405 2.1398805227777657 -5.029063884370277
88.44 3.584609889188209 4.447279413906562
88.475 -1.2197624432875536 -2.9602543375849826
88.51 3.3944274623731054 2.5376488331463216
88.545 -1.6509214600385662 4.013300874301182
88.58 5.731145358042744 -0.9061276944872017
88.615 0.9732885166855634 4.003987117239282
88.65 2.936463459529701 -0.5205035053093581
88.685 -4.155281450891176 3.067148436326499
88.72 0.01613520678979974 4.925292738804466
88.755 -4.467537086489059 -1.9354639983154884
88.79 -5.429592872416459 3.0468592724004067
88.825 0.10525796458395575 -1.0859213317711212
88.86 -0.9665922594962835 1.8298585905911824
88.895 -2.2868995405958206 -3.541881689452897
88.93 3.7600741692682833 -3.6094802446531777
88.965 2.2146273245021555 -1.7600840914961031
89.0 2.0427792780255705 -4.077114721324884
89.035 1.6588177970118867 -1.6190367759640822
89.07 0.4074208180226915 3.1871718815840238
89.105 -1.2016656992049213 3.7675104289333223
89.14 -1.8424287337659968 2.402663930578024
89.175 -1.9962639531029973 0.24412774763210443
89.21 4.286675206672641 4.699190616166774
89.245 2.069800832842444 2.5516038999495994
89.28 -4.450808261275919 -3.8486481981736493
89.315 -2.386238618160341 5.697048748962701
89.35 -4.5552903480044 -5.2189828323535075
89.385 -3.558714101070838 -2.6475054467704555
89.42 1.5833628409419243 0.8348587011321951
89.455 2.5679084169831667 4.275028082752187
89.49 0.45500595389809506 -5.197195028502906
89.525 -4.291150845045992 3.9489467379896945
89.56 -5.2656385279797675 -1.8264176081708454
89.595 5.962329194326331 -2.924135580854801
89.63 -5.975153010215159 -2.3931224046312445
89.665 1.5492631094631513 -2.8531166397110845
89.7 -5.8806444019501125 -1.9921623060618656
89.735 3.6442047093771173 -5.419456031675029
89.77 1.4808006483200464 1.4604873818125461
89.805 5.8068059133801295 1.5577368077833809
89.84 -4.273840914502555 -5.223849794668539
89.875 -4.5285496897567015 -4.826152379739369
89.91 -2.760833546843752 -0.11958487407254825
89.945 -2.45481138517864 4.824910235272679
89.98 4.958334840561372 2.134283085474997
90.015 0.6749738258035554 4.352730357467257
90.05 -0.38073336327554097 0.271386462892631
90.085 -5.863427474691484 4.94351117765103
90.12 -5.3537634789967345 -2.877081938679751
90.155 4.67771402228748 -3.1819841653938843
90.19 4.618792562284341 0.3936278857482791
90.225 -2.586885007000191 -5.991318947781098
90.26 -5.859498690848494 0.9559117070440322
90.295 2.1717685804166176 -2.2837541846998546
90.33 5.341731393975178 3.529445229121118
90.365 -2.477551797588474 2.883936714102213
90.4 3.1204597232331164 5.504287360503417
90.435 -3.916515331057362 -0.6095200446281028
90.47 1.830522277690899 -4.670519163014666
90.505 4.319294943927963 -1.2690810193196294
90.54 2.9051309582573235 4.310983360244975
90.575 -0.29415124669230064 -5.14033361256725
90.61 -4.785668747528794 1.5972918835595769
