! Created with skrf (http://scikit-rf.org).
# GHz S RI R 50.0 
!freq ReS11 ImS11
75.0 6.668439534408408 0.41921068781155824
75.035 -5.726166440425748 -3.187818772528992
75.07 -1.0829724981921816 -7.833269481705002
75.105 -6.513247085992936 -0.001544855409384649
75.14 -4.4328808005418745 -4.642247570953433
75.175 7.398113218565584 -6.614588196955262
75.21 4.663439460235338 -1.5043578539513864
75.245 -3.195579829719624 4.760155671694817
75.28 2.2696579699380264 -4.8416781762235885
75.315 1.845292032038406 -1.9694677061563677
75.35 -7.407578267403175 -8.02038711630199
75.385 -4.161730951060269 -1.2973287602208685
75.42 -7.461685102859559 6.109201254827413
75.455 6.503082848852853 -1.1346997624297281
75.49 0.5101642981438137 -8.391579414768767
75.525 3.6197837254446856 3.0930560547583523
75.56 2.519581147942173 3.50272433922815
75.595 0.14858719384586117 -3.5552851431101478
75.63 7.52284519639207 8.190033502012236
75.665 -3.6918145802587237 4.799870570713539
75.7 7.0123841944801795 -1.4950557109519915
75.735 1.460545942368783 0.957392209941371
75.77 -4.435658419941238 -7.468317407669022
75.805 -8.654532039787316 -2.2777078155236437
75.84 4.525848726500952 -4.290454489748381
75.875 -6.082663457897351 -4.11638644987874
75.91 -8.162445664407269 -5.527505454746249
75.945 -6.799458637605503 -1.7402385366327944
75.98 1.2461491170820456 2.560168996645568
76.015 7.758788608253081 6.076373283887111
76.05 8.874513078751075 1.136436373583344
76.085 -0.25494388476342644 7.739870309105568
76.12 8.358374051691449 2.6334901690279837
76.155 -4.046791580426071 -6.852144249973075
76.19 3.454141184443738 5.19855153337633
76.225 5.30381620721572 2.9890820065119663
76.26 -0.7256260425077576 6.00079281089342
76.295 8.2634792552579 8.175130500858417
76.33 0.6825444027398477 -3.792780592310634
76.365 -8.030985357280674 5.969947661598543
76.4 -2.512599501539565 4.624530594730741
76.435 -2.6085865757413123 6.3182345999013005
76.47 -4.331071524294327 -2.1028034292016873
76.505 -6.1776090807276045 0.09306319571612587
76.54 -8.735051316032813 7.661256481810988
76.575 4.532915969080688 -1.0694727546468186
76.61 -0.7995745215766894 7.667459082402074
76.645 3.260206159298824 -6.83152558882373
76.68 -8.372993317623777 -3.737311673308689
76.715 3.543944970002687 -8.284973582008316
76.75 -2.5241671779152535 -6.5888947889697524
76.785 -0.11309677096475435 -3.8193933041046795
76.82 5.5942173330351554 -8.147196169671767
76.855 2.3556457994453526 7.678819745138497
76.89 7.874807563605539 -0.9415565878467353
76.925 0.8536103146940914 -8.681606928616985
76.96 -0.5350083132829917 3.5367501921633835
76.995 5.464386674846526 1.4386700216035655
77.03 -8.020794141602973 -5.026578965485111
77.065 3.1009464831080438 1.9938131853108194
77.1 2.5859383410241916 -1.5752364459030632
77.135 2.6710305324299006 -4.470459401978985
77.17 -3.7054598960855496 -8.050912729819508
77.205 3.228560050606235 -6.252845557258981
77.24 -4.548848565601548 -4.28185322916663
77.275 6.175442169767383 -1.812949691047505
77.31 8.012010766795594 3.4819640383790462
77.345 -8.156358414021314 -5.944885065454195
77.38 -1.1618851098728307 -6.7395124870196375
77.415 4.54712529598735 -8.259348377926536
77.45 2.998750274559812 -2.6339019500422247
77.485 7.943058049779241 -3.118025657105683
77.52 6.11023877836259 7.937051627074986
77.555 5.23893369735314 -4.86797092976956
77.59 -7.144294785918294 6.197125712348054
77.625 6.562513663634315 -1.3717699651898891
77.66 7.96556184257316 1.918076698225334
77.695 -1.6876361363107324 -4.585117311421512
77.73 1.818306494780451 -4.633846622716261
77.765 4.797601751834347 4.92041129365948
77.8 -1.3628138414423334 -7.573737117623473
77.835 7.998159268730045 4.817150532464558
77.87 7.491104362808765 -2.4054855397019583
77.905 5.748312605881595 6.777606966023659
77.94 -5.928127260397899 6.895019924484955
77.975 -4.217785431027843 4.284496517855422
78.01 -2.6228284696853397 4.990808954907569
78.045 7.891201799130565 -0.8946887213466508
78.08 -5.412749379719945 -2.069788419149432
78.115 -7.459133831179631 -8.672359547709247
78.15 5.829703217663022 -2.2465289020011854
78.185 -4.003178604385715 -7.277566398819989
78.22 2.467841328277454 -2.810694773248033
78.255 -4.950240412418825 -0.1798278153782895
78.29 1.927763593286064 -5.252626574900113
78.325 1.736340785015387 -0.8304673901302926
78.36 5.075336829121023 -1.316293330778679
78.395 0.20058355238299086 6.531984908506546
78.43 0.7569220776258561 -7.302988941080502
78.465 5.640595836153057 -4.643943728895706
78.5 2.4053175842552044 -7.761600014185071
78.535 -6.165359129834042 -1.5921966200971975
78.57 -7.259287289997599 -4.685522209186111
78.605 8.435684578518027 5.848712266293761
78.64 -6.672768120241355 1.0392848137735937
78.675 7.030394619093146 2.8447335079139386
78.71 -3.211696120736269 -5.519326856522199
78.745 -0.16904557067403836 1.348585134968764
78.78 -5.499545265049686 -5.829225443996425
78.815 -2.6201904548370374 7.13912697468907
78.85 -0.857974392998814 -0.3312800489902499
78.885 7.082104583006937 2.3239652370660457
78.92 -3.2080832367833008 5.756165034979477
78.955 1.468358831615568 -8.129333522437225
78.99 1.6774918579244147 4.09786122202599
79.025 5.906457258268832 -3.2930450098551813
79.06 -0.8453696389472289 8.915543267090145
79.095 -1.3512773832681044 -4.011698023274651
79.13 7.5363344071715055 -5.511766077644615
79.165 5.00053870327114 -2.575598465306772
79.2 -3.0594522547232934 3.5738906266966626
79.235 -3.373512812686144 4.8153700655757845
79.27 -2.0089936981482053 -8.503071653472412
79.305 3.657586454087747 -6.605089665577666
79.34 -1.7842453534046878 8.757957706861536
79.375 3.8357579960021875 4.304317421289069
79.41 -2.5863784037397277 8.783277649403866
79.445 -6.253172688384372 -3.5664529259635165
79.48 1.855638240060812 6.788964921662627
79.515 0.7759774965208337 8.698356231099234
79.55 -4.573701683956563 2.3964656920045337
79.585 2.9198631187180477 -1.7625081263597728
79.62 7.666561224201367 -5.681393077872283
79.655 -4.961078727641176 3.6307458292614783
79.69 3.2012535508349327 3.0884849020890304
79.725 -8.97583770172043 7.6298028496598524
79.76 6.9315956010720745 7.866175126598714
79.795 1.8331992890648365 -3.208032152036658
79.83 3.804354661214989 7.575765274336272
79.865 0.07428100451435271 1.029296480835123
79.9 3.701462828070686 -8.790409809053191
79.935 8.751575706741122 -7.653699658425916
79.97 0.7884439710445386 -2.314005275259385
80.005 5.250469403675227 -4.905411882778681
80.04 4.184377413253324 -5.48619054139819
80.075 3.605346963993602 4.330361750957603
80.11 -5.2501434195091345 -1.8317829710563969
80.145 2.3685239135821536 8.952242546667183
80.18 -6.404677892849492 -1.8326919161159878
80.215 3.990748018740341 -7.059077121391145
80.25 -5.516211954050876 5.470261631836132
80.285 -4.068140526639195 -7.995547147269843
80.32 7.423236475889339 -1.5322166461809634
80.355 -4.441368053722265 4.95285309623678
80.39 -2.7449836952549136 -6.559307963752463
80.425 -7.504877096286558 -7.785579209426867
80.46 -1.0013415190418635 4.338404265661097
80.495 1.9740572264241898 -0.2767545722448812
80.53 0.20996511450591737 4.647046714723004
80.565 5.353577450132249 4.643674872247096
80.6 -1.256729736920987 7.541943314553566
80.635 -7.3698382692960696 2.9747085540150415
80.67 5.404732027208017 -8.416243505328932
80.705 7.2426261533745615 0.33093457799320425
80.74 -1.9853531229926473 0.48288931113943545
80.775 -6.754399531311718 -0.19304310289267246
80.81 4.397138598693299 -4.419479429707598
80.845 4.8161735284127865 3.294870834512418
80.88 8.003268247764085 2.93992270570659
80.915 4.646177441052457 -2.4643823346030924
80.95 -2.316422742541599 1.741185623669402
80.985 6.570575021545433 5.388669640534501
81.02 -8.404606445437864 -4.605303044962437
81.055 2.8682087760459414 -5.7874875499800345
81.09 5.7795302360190135 4.572161626144398
81.125 -5.282905717991911 4.975878906719522
81.16 7.3006241370399 6.894224417855725
81.195 2.6451748914152615 -3.22555278669599
81.23 0.09492774127067483 -5.429594521518142
81.265 -5.0759761894182 -8.81041955515452
81.3 2.374709956456119 -6.56362312824615
81.335 -4.1913710959559705 8.147889381382969
81.37 -6.307526433938959 8.083265616708957
81.405 0.5329787261041496 -6.086610306924786
81.44 2.3952032035357407 1.2013481999612226
81.475 -4.424281044246083 2.3259119338469825
81.51 2.811756493929911 8.694983537245752
81.545 0.5345098567046869 0.47971901803299355
81.58 -2.4814947637988514 4.882861474296455
81.615 6.575955664239411 -4.187896757654686
81.65 5.3982499477933805 -3.598582313224024
81.685 7.831866159405315 -4.029154533502616
81.72 0.5916896613113003 -6.022771133174328
81.755 5.23253386157293 4.4696105278679585
81.79 0.908530660454314 0.9382028086853815
81.825 4.284635974709335 -6.017406111745268
81.86 -3.849470459873518 4.817286541169306
81.895 -0.34663758799181155 7.13622951742808
81.93 6.029018763409932 -5.480795821172468
81.965 1.6136834867778964 8.89540795279767
82.0 -3.0508744499663503 -1.3357255797886127
82.035 6.887148707174369 1.5148041298167283
82.07 5.0927590362758135 3.483184126221342
82.105 -3.807895134975669 5.883808799285435
82.14 -8.3958307365029 5.1430569535628194
82.175 -2.341254745845445 5.150064489898066
82.21 0.9071758162159786 8.049821981093926
82.245 -5.492268698833914 5.969950132194223
82.28 2.982987390510771 -0.0731617004258418
82.315 6.542102608292125 3.1722217079744683
82.35 7.191078866885912 5.25951438687402
82.385 7.274675958897651 6.968253737272418
82.42 8.741411872764669 -5.589026904741779
82.455 8.175313676222327 -6.662531441601777
82.49 7.1495964242851375 0.9587820118575967
82.525 -1.2112316041012072 -4.874203166100245
82.56 6.222353290717913 -0.6355465801943443
82.595 5.899772614463821 -6.8064944785996095
82.63 -1.78569888755705 0.7909123775452902
82.665 7.5469519618966965 2.713374126111421
82.7 -8.928473954718939 6.004200722958034
82.735 4.612604205614071 -0.24949515130509026
82.77 -1.4576646644685725 -1.8989160071278532
82.805 -3.228022123082834 2.445948219700329
82.84 -3.79815389984654 6.020889247913341
82.875 -6.582357783581854 1.0956803290271653
82.91 -0.9874459655679757 7.806446784057788
82.945 3.770146937704016 0.497102135553799
82.98 -2.459932776802988 0.7582407403853164
83.015 2.324115929930145 1.0141626325574653
83.05 -0.8235113211935259 5.17663501490421
83.085 -0.2631898604426659 7.042911651432673
83.12 -4.312642328841827 -8.35702725680089
83.155 -8.77263777891554 -1.011518496683215
83.19 8.341890155597163 -5.564869379054974
83.225 -1.7919628007075548 4.9327128059188965
83.26 2.5323350708079904 3.847077388975732
83.295 8.420820814683072 -6.176103098463709
83.33 -7.3399744461519925 4.452436470326491
83.365 -8.215758011936618 3.274744797040987
83.4 -5.799564271185114 -2.3963754543485485
83.435 -1.4010208294670148 7.024559477284793
83.47 -7.4916427951352835 -3.303073699525001
83.505 -5.396088265415553 7.600733136319718
83.54 7.524505709919973 3.2129040092159604
83.575 -4.441104049429919 3.6781764431494635
83.61 5.180857220767759 0.05165744109699322
83.645 2.3312475479352455 -5.84659959618887
83.68 -5.664189995812548 2.6529244529075227
83.715 -7.440739468861034 2.39523314216284
83.75 -8.177701538979987 -7.4981592200405744
83.785 1.1536867759204668 -0.6050470177270124
83.82 -0.8454176374681808 6.813199319072712
83.855 -6.337922666787 -7.466629589452964
83.89 7.560224448815284 3.409980403349791
83.925 8.606325503977098 5.662633514637026
83.96 2.805878032177274 -6.2490086685016895
83.995 2.782376302351553 2.382025036188282
84.03 2.8379766070650563 -7.746083503944929
84.065 -0.3938140749584047 4.977398678505212
84.1 -6.679118347841851 -4.004315989386686
84.135 5.870313406163132 -5.506504862231623
84.17 5.122951393733917 -8.69566078214162
84.205 -4.412475367341331 -2.2826359872565405
84.24 -2.7302180876478177 -0.5857850361802495
84.275 -5.617112976219215 7.581293198144396
84.31 -0.42444824598959796 4.5102829231951596
84.345 0.3702679553026702 -6.672416191784553
84.38 0.19549570266973215 -5.334069729996703
84.415 4.798776952783262 -7.909553414384623
84.45 -1.6843645598220454 -5.658830604025395
84.485 -5.404737388160771 -1.2918312594571104
84.52 -8.720015073418526 -4.226788557348472
84.555 7.831993237610849 6.847867132803292
84.59 8.105849032202268 -0.016843204301114856
84.625 7.32445665883748 0.07850820744585763
84.66 -0.8782848043350442 -7.588886712842802
84.695 5.5612783523504055 -1.596111578069456
84.73 -0.3707656053618056 -8.877770284143441
84.765 -4.001567394013917 -7.007696167525414
84.8 -4.0886668225903895 -7.9203028492740195
84.835 0.8995245992976444 -4.156233841665566
84.87 -6.29567945327454 -4.3539690543189895
84.905 -4.711355208659973 3.4166309519805833
84.94 -3.4510748056665315 -5.330648841189908
84.975 -7.941389992564739 -8.249805630764453
85.01 8.52844516441958 -2.6361758081667235
85.045 8.79954363558513 5.871220373977545
85.08 5.294234356308071 -1.9607190968748287
85.115 5.7413781055620365 -4.023180186605305
85.15 -2.889520465355715 0.7046500167741261
85.185 -3.309165244149251 8.833731045229614
85.22 -4.78245741185447 -3.7637416893889855
85.255 -3.6908731734131233 0.0821110735675592
85.29 7.327334607115283 -7.555834055248838
85.325 -4.819650453361856 5.872194492231847
85.36 -1.0328928784849025 5.87398605533968
85.395 2.120688536912373 -3.31144594882006
85.43 -3.5132644639552577 4.109006034021251
85.465 -0.25516448841410533 7.851103815513678
85.5 7.890420369727986 -1.5841322900288288
85.535 5.046480891279801 -8.143399527576829
85.57 -0.5036019056901055 0.5524714094469534
85.605 4.40585462002684 -4.408791637514842
85.64 7.73971623612425 0.8241736270855275
85.675 -5.045524736779203 2.0972311950076534
85.71 -6.647178382101117 8.890121001549057
85.745 6.29570780474911 -2.05420047848966
85.78 3.9920492206267997 -0.5342551316760928
85.815 5.374392465554106 -8.90666293461026
85.85 -8.531339930817083 -5.966207042551805
85.885 -2.107349230659783 3.1209259632130335
85.92 -3.111754863524957 -4.934018017167311
85.955 -1.5447478221650097 4.1702588297033865
85.99 4.764929137607336 -3.8801411300785866
86.025 -5.757045838997521 3.43179688420052
86.06 -6.42541362875856 0.8489293739057295
86.095 1.7358992506471376 5.939213475765605
86.13 4.244543898418715 -5.346655556904006
86.165 -4.998241286382483 -7.771732588707831
86.2 -7.366064662778239 7.367975044612625
86.235 1.7127400492771598 -1.131109035790172
86.27 -1.9062848798728662 -0.20502829658117827
86.305 0.9306476900736635 0.708774199818414
86.34 -8.403206198748434 0.6213671748773302
86.375 -4.1839593765953005 -1.6413351365422708
86.41 -6.009289959788483 -7.266494386326155
86.445 -1.548905779061141 1.4688648670066262
86.48 -1.4428221647442896 7.800897820811299
86.515 3.779662612801938 6.660335475596328
86.55 -7.062732406609024 -8.735809033637068
86.585 6.044140028031271 4.4388776749212155
86.62 7.256266059958061 8.399819734254137
86.655 -6.928821599903512 6.889311391976645
86.69 5.602361301040877 -0.6390035664869234
86.725 -4.189003532815065 1.3682617590661317
86.76 3.2247026894567377 -7.024002196557802
86.795 -4.329645644990628 1.2662042322210474
86.83 2.05179430583359 -8.320720118628874
86.865 5.20272072677762 5.467594724916878
86.9 -1.9930019794488698 3.482736481230848
86.935 -1.2839958459479421 -6.160734036464287
86.97 4.511566281423297 3.6536236340830435
87.005 6.743185039826228 7.717514892399938
87.04 8.369635809699373 -4.151349005318507
87.075 -1.3570953452156718 0.5570462426665859
87.11 6.772353760173903 -4.730340678507031
87.145 -7.119304265526459 6.55786639918979
87.18 7.504637810052801 2.273926377638956
87.215 8.980257315200518 5.0420032370119685
87.25 1.7395033310478105 -1.3065611634949987
87.285 -2.23983238977116 -7.306777668826552
87.32 5.0557568314193535 1.1232286651807173
87.355 -3.779177942506153 -7.443852408143767
87.39 -7.664448000718635 -8.305941462035015
87.425 -0.025810772214053923 -3.597351251690845
87.46 4.753611890877504 6.767095302504737
87.495 8.281651676082292 -6.473645325915081
87.53 8.953467047456886 -0.3849047004327206
87.565 0.1919297023064246 1.929579792535092
87.6 -8.766076708628425 -5.23219186842398
87.635 -2.168796802456228 7.1793732922365345
87.67 -8.985605949034541 7.168885321802639
87.705 -4.712913396655463 -4.662849449306853
87.74 4.442301371745841 -5.151133314925611
87.775 -2.77431733721689 -8.488659792806205
87.81 -5.691522218084486 -2.3841571500913927
87.845 -8.029441774428397 -3.318615765402887
87.88 -2.076359775671552 3.3996429409883584
87.915 0.6406383199573973 5.465883433658936
87.95 -5.386394737979284 -7.677512136363575
87.985 8.037227408104641 0.15370178195814277
88.02 8.55641394278939 3.0859948595849316
88.055 -0.06479958131262009 -5.090605618736708
88.09 -5.242810236801499 6.337548051344207
88.125 0.054094661293949464 1.1862167449539907
88.16 -6.45688862609726 7.917902794178834
88.195 3.7660413022039525 -7.605792460955844
88.23 -2.556181078496458 -5.376846390591167
88.265 6.834852754811777 -5.807138700613482
88.3 1.0531412285252444 -5.942900966067066
88.335 8.627709941107485 8.790255657968043
88.37 2.1970206935266288 -3.7411831287503836
88.405 8.300155590989064 -0.5224620014447694
88.44 2.810432417616304 6.239220955531579
88.475 -2.7315826098031453 -4.270300789177953
88.51 -2.3971703179018817 -4.682593853439933
88.545 0.22740410699641989 4.976805737979923
88.58 -7.002327525868121 -0.1797616664250865
88.615 6.194105144737691 2.14557406695512
88.65 -4.273130771036 -6.807315733223334
88.685 4.638870289657862 2.2014700629017137
88.72 0.30433917283044054 -0.16881061216102666
88.755 -6.394870723419562 3.1551466135033435
88.79 -3.385252495794866 0.5913657655611577
88.825 2.832826284467036 4.351951560423953
88.86 1.5867532895769163 -7.837787832461269
88.895 3.211815663721608 -8.798337943025889
88.93 0.6915964451052199 7.223539646379752
88.965 2.6086024718054195 5.808931761288989
89.0 1.9065193791104182 4.469009530458157
89.035 -1.3021172698368038 -6.835121774384302
89.07 -5.783786750726517 3.6454847412496423
89.105 -4.024840891903464 0.9602823822449134
89.14 -5.418960540487418 -4.804591177964533
89.175 6.119214493320939 1.9710155788524628
89.21 6.7534045061436325 -1.5447194338916197
89.245 -2.1182581351576357 4.489301156994045
89.28 8.677566972764653 4.3689521821897594
89.315 8.243593659837533 -4.052233506370016
89.35 1.3735449749190023 0.7008607662439734
89.385 3.269283326071781 -4.023991088500496
89.42 4.605346576932501 4.991388455433911
89.455 -3.092327025043999 -6.616788543525146
89.49 6.743451594720213 2.6748503346084247
89.525 -5.212326558831249 -3.1253753877235946
89.56 -8.454781362765262 7.039597942151387
89.595 3.379681589689037 5.750817409898811
89.63 5.868956145336227 -6.215749435959015
89.665 1.199978724194936 -5.490067235402698
89.7 1.141085330359821 -3.70924394981585
89.735 4.12805759590799 7.479096548290644
89.77 -4.472392297754309 -0.1196080102821917
89.805 -8.049587619746339 4.229617703020141
89.84 -4.390589799744593 0.04043511175810788
89.875 5.612349403963201 -6.924693771032915
89.91 -3.1840539757996495 1.8720037473845044
89.945 5.743878749475599 1.8742681627301203
89.98 -0.8225735300323096 4.659839176060304
90.015 5.551182455128201 6.707242966060571
90.05 -8.631023423964457 7.092732223157389
90.085 -1.8763093511786033 1.5300094908849413
90.12 3.418205142348744 -3.9228003646888565
90.155 7.547701552273636 7.577145295822431
90.19 -3.195998556786903 -4.005068706727224
90.225 6.9530511547733465 -0.947349829195095
90.26 -7.347626593791799 4.570965197796868
90.295 -3.631010398331722 -3.861500510064912
90.33 -0.08175048381826544 -4.392966055434964
90.365 4.543079307430409 6.332525605418017
90.4 8.789190921575985 1.282592949376808
90.435 2.4794077306621185 -1.9995293905736724
90.47 -3.1389406716653774 8.378859213813229
90.505 -8.916133146327104 2.4522582902389134
90.54 2.5847569923300657 -6.694352025748538
90.575 0.3143313766616376 -5.598731775152107
90.61 4.2814969265012 -8.481086031295009
90.645 -8.725150153817708 8.557987617084645
90.68 -3.9049201205412816 0.21094270443865004
90.715 7.718328165971084 -8.412114276939672
90.75 2.996339035171748 -2.1966418191813717
90.785 5.139206354050715 -6.720538434100247
