! Created with skrf (http://scikit-rf.org).
# GHz S RI R 50.0 
!freq ReS11 ImS11
75.0 1.2280078971478812 -0.5281666340909279
75.035 -2.3097474003692673 -0.34726554415041644
75.07 1.796246385612224 1.4979936102327969
75.105 2.4172023750675695 -3.7441563845644596
75.14 3.5566420470983644 1.9492727989163408
75.175 0.23878311063193625 -3.893541876166113
75.21 -3.2230618630879437 3.3380809400834766
75.245 0.5814708508119732 1.7558877067478074
75.28 -1.8207775847115562 0.29392765082639727
75.315 2.5557877400498503 -3.802090365783383
75.35 2.6694778798747354 2.1379199159864877
75.385 -2.4020187872930228 3.1952933922431503
75.42 -1.0281720441307352 2.4501611841233757
75.455 3.574341677499337 3.18309051004735
75.49 -2.544136842826031 -3.781648177805054
75.525 2.8669554454637804 -0.7835782119999513
75.56 1.363202563141419 2.240439453429829
75.595 3.049563058638218 -1.2495937011017553
75.63 -2.4681049713192067 -1.194218657091592
75.665 -1.0608492943571681 -3.5032005598320426
75.7 1.0274659320770327 3.24938835232145
75.735 0.8298869687289478 -0.4095249276567703
75.77 0.7250668412372727 0.8662295376836724
75.805 2.18251231400066 0.06246486859651057
75.84 3.478544792311781 3.9750962861546917
75.875 1.995000437740571 1.548330865107622
75.91 -2.734544734163241 -1.6318414787316486
75.945 0.3384096897343003 2.2104471255057687
75.98 1.6500326581125035 0.37550751268196336
76.015 -0.8686223824334025 -1.0823220859455018
76.05 1.2432541433221411 1.085795994995176
76.085 -2.653576503950285 2.7042844794231202
76.12 0.3005112721609393 -3.4370835351868294
76.155 -1.3344507205222795 3.989774436212884
76.19 -1.1798965367976422 1.9134943838714396
76.225 -2.1393402256429797 3.458602759009551
76.26 0.48856132029682264 -1.3635023639883848
76.295 1.151467339215941 3.8373120268692595
76.33 1.875208253408113 0.46072560183451117
76.365 3.174765363430021 2.8093912924606466
76.4 -3.279944166685894 -1.3164109097044117
76.435 1.3185077913854268 -2.211326113083884
76.47 -0.8955858904157399 0.008433278524321963
76.505 -1.964200343343494 3.004218348870661
76.54 -1.1981038287347427 1.8579262979880022
76.575 3.6740860549694183 1.0408155590041446
76.61 1.7660915443139196 1.2413909724074044
76.645 1.3153368505095253 0.5516843144871295
76.68 -2.891495677324694 3.4363016639265016
76.715 -0.36868937511488475 1.8708355576510343
76.75 1.0751260355291894 2.149973762887644
76.785 -0.4304160368304233 0.1277438561899622
76.82 3.2690567742423937 -3.0510490734543705
76.855 -2.668301556627352 -3.275005781002358
76.89 -1.535619555688669 -1.4184307302162882
76.925 1.9868615789127047 1.5818197813333157
76.96 3.072287792786465 -2.058769885442577
76.995 -1.4618420855167935 0.9745555600310825
77.03 -1.4611460695974898 3.7308481392226662
77.065 -3.2455437226126085 3.1646301355817377
77.1 0.7397667937119348 1.7847805916740107
77.135 2.087848968797398 0.0498682209527086
77.17 1.7479422188297713 0.7051081711292095
77.205 -3.9866929698685354 -3.548655585617219
77.24 3.7671811862599123 -2.433078534690657
77.275 3.431420924329986 2.724234641162485
77.31 3.3485279204042264 -2.7899024292271077
77.345 2.501316105239539 -3.2123767396219503
77.38 -1.8082337442003924 -2.546782147530495
77.415 -2.105971339699696 0.9050293530942355
77.45 -2.594750333671368 3.354026884437329
77.485 -3.5645228614115654 1.6758650425090629
77.52 3.0087258480880203 1.8684451140123537
77.555 -1.3370861677213899 0.808349394235198
77.59 1.320001704041168 -3.605279980273628
77.625 2.6852745181061657 -0.2818964251935707
77.66 -1.6545044300531728 1.3506372420394284
77.695 -0.6500340035045014 0.6248922429699295
77.73 -1.0232414341676215 -0.14507088026729242
77.765 -0.7126174893821196 -0.29350126781065633
77.8 1.6936746659225212 -1.6090200889570756
77.835 2.7957872644749004 -0.11693087388785184
77.87 3.6067213391653024 -3.1938491496412924
77.905 0.6857583182819083 2.9340975281769266
77.94 -0.9972334647629459 -2.1070019421069537
77.975 1.59139451387356 2.503017868193833
78.01 2.6215514551783956 0.10416850706774117
78.045 1.7069529366152292 -0.9978463169684293
78.08 1.4758353441297247 1.8032875036717213
78.115 0.879997273926274 -1.9816456041802644
78.15 -1.3534285719514818 -1.1181299486511707
78.185 1.1365115085296393 -0.6732021062489686
78.22 -3.874113549532682 3.909385882072673
78.255 -0.3404581026787641 0.17331781790178713
78.29 -0.29280741625830586 1.7383405388379582
78.325 0.6077911103858984 1.7315531230441685
78.36 -3.8953384195054213 -0.939872788190617
78.395 3.9346028129834947 -3.8495705192306175
78.43 0.7239057913951994 -1.7279179431237042
78.465 3.7659361925103667 3.893738492601985
78.5 -2.404313977459055 0.26194162485229366
78.535 2.0755833761935847 0.9598549949025141
78.57 -1.6435192181247533 0.3568042986047031
78.605 0.2923364952637293 1.2820352205478232
78.64 3.62917455249545 2.426095221807043
78.675 1.052090612500975 -3.1121068833743015
78.71 3.0487983436933375 1.5292681686617406
78.745 -3.5047662461751443 -3.072704299095953
78.78 -2.8065026855435997 -3.177305813027612
78.815 3.5792740323966736 1.1328515856053079
78.85 2.466405002389827 0.31079287770116526
78.885 3.000288986765354 2.306921517526657
78.92 -1.3764887131608177 -1.7924611422910575
78.955 1.9752111843222355 -3.207248159401777
78.99 3.527293613305636 3.293414215350083
79.025 3.8952237227473114 -1.1497912377761104
79.06 2.094046084441695 -3.2049333575077057
79.095 -1.0871049725084543 -2.146343569258586
79.13 -3.861945914952786 -1.0874816745541205
79.165 1.064921087660224 -1.4656309805146543
79.2 -1.719393114388164 -2.754413248703469
79.235 2.442565297706466 -1.2870787683922336
79.27 0.3413506137586433 0.9984668223685969
79.305 2.2884866534947195 2.499852742587727
79.34 0.6145985975975465 -1.086162346599437
79.375 3.5559169584345227 2.0164322809146684
79.41 1.3788390132647548 -2.052122588424483
79.445 -1.635932274004828 -0.4387684292408114
79.48 -1.398236580054312 -1.2510871632491396
79.515 -3.140131251715948 3.5447504889286687
79.55 -0.6888033525663086 2.452058063705678
79.585 2.6131758457051752 -1.728304003577743
79.62 -0.3975647841657244 3.2494339753661317
79.655 1.0624543754851485 -2.7279152050497766
79.69 -2.84645640532187 -2.611370162218174
79.725 -1.6480974572655116 0.21785064767232587
79.76 -1.3207775417679875 -1.420753399498052
79.795 3.4498539802691868 -3.9663323671440684
79.83 -3.544244052216963 1.572994233260296
79.865 -3.0188691056684114 -0.49754172654592743
79.9 0.6011471102349315 1.5277048678199971
79.935 -0.927433834002195 -3.6885468442196716
79.97 -3.9490208418658126 -1.3716780078015898
80.005 2.3838500502808175 -1.9870497457650336
80.04 -1.1595823142646617 -2.7755060021430165
80.075 2.8223047604090805 0.5968407211544804
80.11 1.7798272300519393 -1.9560526185454048
80.145 3.742780645380712 3.8990494980925607
80.18 -1.9504848420555714 -0.9486132877816198
80.215 -2.2898493683973493 -2.8441335596471973
80.25 -1.0097173331607152 3.292367003824409
80.285 -1.3215479046090026 1.462825803353553
80.32 -0.9714581529716391 1.415809700701912
80.355 3.950053811033057 0.29952531909765856
80.39 -3.649690762177589 1.1383358542998545
80.425 -3.8001235575149757 -3.4714926405921505
80.46 1.3819110105705432 -0.704957534404465
80.495 2.1136929723580273 2.152200305334465
80.53 -0.2367055399689777 2.3443264212157775
80.565 1.4500702643826822 3.940179235400729
80.6 -1.653763984611019 -3.875809859500679
80.635 -1.1509133418580335 -0.5903010040152372
80.67 0.07263268789103083 -1.3512119311295896
80.705 -3.2678295181405685 -2.0027992578250595
80.74 -2.892809095261036 -3.6374047972141703
80.775 -1.9865134352261329 3.446716299024202
80.81 -1.2462384582556671 -3.596738300656326
80.845 2.428100723160858 1.3126100477820124
80.88 -3.2020749387884555 1.05077333195214
80.915 -0.5281908454412001 2.624718609866447
80.95 0.377437662770717 -3.1268764650508976
80.985 -1.2726186068290621 1.3683753420583207
81.02 0.9978415075069744 -2.60336845447799
81.055 -3.7105122607923944 2.857519140894584
81.09 -3.2832775725650496 1.5690727443053634
81.125 1.4396309961860991 2.2375289754103154
81.16 1.31904467643169 -3.9630129340207727
81.195 -3.494170659614494 -1.3229434994960458
81.23 -0.3389378875899185 -3.949440338094222
81.265 -1.6467525456035688 1.5921381772222558
81.3 -0.7376451493798433 1.3605876279746472
81.335 -1.0504462071015501 2.123700945395541
81.37 0.6695287027184591 2.3486319321451887
81.405 1.9528033545328425 -1.4124655428896968
81.44 0.09080433498093932 0.11201715210002483
81.475 -1.8729466069201068 3.0112394194980663
81.51 -0.8444438932062832 -0.3105045582503605
81.545 -0.5694158265230547 2.6758826043643555
81.58 -1.0842017401736461 0.23786510679900896
81.615 1.9530182830371423 -1.3134304296384443
81.65 0.7125907728827512 -2.795853217069026
81.685 1.553790179077648 3.8221352394124137
81.72 0.269798304710438 -3.310415067396171
81.755 2.522561181434096 3.098924506288788
81.79 -0.7504143621077093 -1.6362478565218206
81.825 3.563627951994148 1.841479905163351
81.86 3.144562960263678 2.7754315009357162
81.895 1.306744071666757 3.7421015584453468
81.93 -1.3618817492235697 -3.569968909748824
81.965 2.945272343984656 -2.953432086476756
82.0 0.06473549250180177 -3.0515590794538703
82.035 3.464355601593696 -1.4832132673306901
82.07 -0.15083030083575188 1.9474605946597388
82.105 -3.0696934113003715 3.415353535004612
82.14 -1.339528474798728 2.6064888562709205
82.175 -2.465328130689281 -3.0370975491607854
82.21 3.366550050834203 1.513451458410083
82.245 -2.120188734313448 -3.066929395683619
82.28 1.7925442419147535 -1.5297119138548396
82.315 3.4533087165143312 2.081811003748527
82.35 0.7317962366364679 -0.26268140809839213
82.385 -0.2444635049867836 -3.025560616543003
82.42 1.697565225186029 -2.9507503700860465
82.455 -0.2646543298372537 -0.2727522256798949
82.49 1.2381025258240994 0.8756283019041202
82.525 3.5383085060375326 0.023657390527880295
82.56 2.2509044013910033 2.716164751078373
82.595 -2.4494522935631036 3.116932349985584
82.63 0.6420807138343116 1.7002529170699354
82.665 3.439665181397043 1.6455143997133783
82.7 -1.66363579737025 3.1743517861989474
82.735 3.8839339078497748 3.1919164912531492
82.77 0.8434976910754086 3.5896754448150316
82.805 -2.344998900199669 -2.4744435920573498
82.84 -0.6178359919980307 3.757366015910197
82.875 -2.6378572844521777 2.2650848718732917
82.91 -3.5005358837138187 2.631865502924506
82.945 -2.4555339513662897 2.6095883622059004
82.98 3.7363644013510795 1.5387105915144481
83.015 0.6885433495141351 -3.8810048395884023
83.05 -2.273810424086114 -0.11611905069841555
83.085 0.14759993094061574 1.2434576611934993
83.12 -1.0440967562697523 -1.7441490918165226
83.155 2.5883394041129284 1.9137993552126389
83.19 0.16948341340181727 3.8765004488236787
83.225 -1.274634084735398 -3.7600961166949363
83.26 3.9730593001701875 3.2243842301080097
83.295 -1.085761894037348 3.835080904893334
83.33 1.5958789989803819 -3.251613910976265
83.365 -1.4362560599402503 -0.1230503071529192
83.4 -3.8291635763005614 -3.420205854184709
83.435 2.1812877749278554 -3.4481914784713164
83.47 3.256735764543298 -1.3638833884331074
83.505 3.9951085297264006 -3.8780164992582984
83.54 -3.2260316589294122 3.895060172089857
83.575 -2.074008252863945 -1.8006106098259798
83.61 2.4847589459232378 3.5577346709040985
83.645 -3.1442674439666733 -2.975289022541216
83.68 1.8825922763772338 1.6181113772270663
83.715 -2.377494594438687 0.5366613870841723
83.75 -1.286598037875046 1.5078504860737851
83.785 -3.0841506925095272 0.578270864257707
83.82 -3.9609241850598744 3.8994528306762577
83.855 0.11639403211470079 -0.10725509687570955
83.89 -0.46979949383547037 0.07242509511714434
83.925 0.6100816833683869 -2.381417441717425
83.96 0.6702735617309035 -2.9551867447238527
83.995 -3.4320344575175152 -2.0765200314276946
84.03 -1.5422473213705397 -3.202678908822336
84.065 2.2047367701407437 0.9894556331992783
84.1 -2.3700699847434183 -3.229388678654492
84.135 -3.9998417383254097 0.6063075615047966
84.17 -1.3315187095597985 -2.8953182134357833
84.205 1.2238444188551556 -3.4363527370144835
84.24 1.1032910453899918 1.1281584795705504
84.275 -3.8826406912428526 -0.19953588081738083
84.31 -1.5983276140722333 3.714296167633762
84.345 0.5714835762326969 -3.7201196378275503
84.38 0.6422755332096868 1.6207112273595818
84.415 2.8992032324273422 2.369913635087089
84.45 -0.29904526666187614 -2.7481660566815886
84.485 1.2711381343967973 -1.7352393997405562
84.52 -0.25652258610300205 2.473764907422968
84.555 -2.0895215963276303 1.2699565154523862
84.59 -3.9962823550689412 3.95797682092463
84.625 -0.43708253019485355 3.3795960396590683
84.66 -0.4782631525019534 3.6484068413772874
84.695 3.0600766261904484 0.6680254740263569
84.73 -3.2529591942445624 -3.3126080589723355
84.765 -1.806325027627075 3.715710770723132
84.8 1.2132401679605511 0.060002192323236336
84.835 -0.32507227384701043 -1.4267243886969379
84.87 -0.09027361536819623 1.0116120172504885
84.905 3.429904203281401 0.028424826068075504
84.94 -3.324424459782014 -0.08201390087271765
84.975 -3.400530221706588 -1.4145912735233663
85.01 2.821817493536826 -2.266280903278812
85.045 -1.291941911690743 -3.4778556593733994
85.08 1.855713168037946 -3.2001264187205187
85.115 1.4084543403232468 0.6787547203173983
85.15 1.5938023407228608 -1.326259641689271
85.185 0.5516039239941266 -3.12422794078251
85.22 -2.7917975867429545 -1.1136613562160633
85.255 3.792109158475834 0.0985899820095355
85.29 -2.9482673677485502 3.8543666538240284
85.325 1.7902433174085175 -0.08874595189944934
85.36 -3.4631349512556175 1.4477639044953712
85.395 -3.488231076079039 1.5781644774477819
85.43 -2.004072585601282 -3.72414048170611
85.465 1.6301555736926785 -3.430706605349031
85.5 0.685095808443827 -3.6035549841899233
85.535 1.4119916085222082 -3.98531643195831
85.57 3.692413988420909 3.9355108552523257
85.605 -1.4226581919460939 -1.68717513447886
85.64 3.6409631828528513 3.314881362448464
85.675 -3.7633060525404654 -3.1564114350886374
85.71 3.6215820819858022 -1.9052505994644973
85.745 1.6820225375133182 -0.05177140999853691
85.78 2.0453890004315642 -2.8478439913252593
85.815 2.5685682920720705 3.2693999215935365
85.85 -2.9562671377101157 3.377486845042789
85.885 -3.5878583703265132 -2.5573854437868366
85.92 -1.3003447415109095 -2.494248710759675
85.955 -1.6069423066549495 3.796168918050852
85.99 -1.0573376771626997 -1.107282923319448
86.025 -3.43647720397285 -3.7739734663379547
86.06 -3.9906534558894515 3.7466337993655783
86.095 3.5065734234667865 2.391358548925975
86.13 2.3800551616364984 -3.2133178151816066
86.165 2.051744540642777 3.8384860113763706
86.2 3.8277613202987464 3.9202333839399097
86.235 3.6933801416408807 -1.4461864682558314
86.27 0.14913193988092477 -2.990015755587809
86.305 -3.437178705649811 -0.6208484314611127
86.34 -3.7351533629599114 -3.8562938449491577
86.375 -0.15095430265807153 0.7290157981485645
86.41 3.378870607728712 -0.3219921528702576
86.445 -0.5418095999560357 1.3828381533454754
86.48 2.536050176489524 -1.390869550042786
86.515 -3.5646471833331503 -2.7902778912217485
86.55 2.1205579871258653 0.17761071086236946
86.585 0.2412976865004044 -1.9339474496595184
86.62 2.5064082394664267 -3.410108665551906
86.655 -2.983343417533386 1.8715502474351187
86.69 2.403322802263123 -2.3931019571466567
86.725 3.751815572244044 2.859576271027888
86.76 -3.9669279415789402 3.123054549441682
86.795 1.6879307216428519 -0.5491250361931446
86.83 1.4311939690781177 2.250861684733919
86.865 -0.8884860718518022 2.4611997762601225
86.9 -1.5244051914661352 0.33623015144814516
86.935 -3.5966243586722673 1.8624879517228967
86.97 3.8561321564637847 -1.163852728567436
87.005 -3.3300374883660533 -1.7397608532372182
87.04 -2.744436961012206 -0.8346594938124205
87.075 3.231907331413196 3.566671506459193
87.11 -3.98506088097111 -3.368387588759899
87.145 -3.9388839805836335 -0.9848796888633107
87.18 0.3542967045103813 -2.337643940893675
87.215 -3.108974940244625 0.02768594025072435
87.25 -1.993661015388108 -3.1680530966117724
87.285 -0.9880868661535311 0.14076047366507005
87.32 -0.10874748362807907 -2.367884871542433
87.355 -0.9149989502948168 1.0212503547473517
87.39 -3.3656160788830434 2.751847138465891
87.425 3.904795517273982 1.3971903305225073
87.46 -1.6082457210592995 -0.06553597143992462
87.495 1.083351993292185 -2.1934414456750932
87.53 -2.163141803726841 -0.8269308092524561
87.565 2.783909226584395 -2.372783987137349
87.6 3.3039511337622276 -1.5165261732371933
87.635 0.6287939784997034 -3.724404928469264
87.67 -2.303946567636948 3.8493343458835456
87.705 1.3453703725794464 1.067339777555988
87.74 -2.717149742163147 -0.8644921909503331
87.775 -1.6399920903317655 2.8031294674127114
87.81 3.3438105158643996 -0.6128662910630887
87.845 -1.104524015601113 0.19389986000482828
87.88 -1.4321026012012608 2.6236133518400235
87.915 1.7007965021434828 -0.8156175795100644
87.95 0.17631786719913922 -3.2010615641504527
87.985 3.0896039008368756 1.6277083646145707
88.02 2.6317537500576487 -3.840218747690474
88.055 2.3010383099296003 -0.1420518826465349
88.09 1.8985047359271912 -1.517549189072402
88.125 -2.435055653167879 -1.6987210264031152
88.16 -0.1138641739044779 0.4386452296846004
88.195 -1.0029822561918111 -0.9518241346435454
88.23 -2.4467890672189574 1.456831669766716
88.265 -0.4608073033139375 -1.0561581267958262
88.3 -2.660821695064562 3.0080904696752047
88.335 3.608443742156571 3.0880202728340773
88.37 -0.09847458668813136 -0.37570659900800063
88.405 0.13283212865097127 1.4579734715130357
88.44 3.5241664814533156 0.7969589282916019
88.475 -1.2614270581586684 -2.5312984924071174
88.51 -3.5872490837959914 -2.842808891971173
88.545 -2.832757888279766 -0.32677679367407464
88.58 2.3124455493393343 3.0529396323658897
88.615 -2.7570347317385826 1.475996161785246
88.65 2.961544541691758 -1.904462363172505
88.685 -0.42751050014905356 2.4195440782140345
88.72 1.1416108948514179 2.279856523300218
88.755 3.5278748677674336 -2.0673354976460807
88.79 -3.7490117010859034 -1.7558668488088278
88.825 -3.137207547830209 3.0215335173635687
88.86 3.6537609568597675 3.455070775580916
88.895 -0.4291952325246289 -1.616263898175494
88.93 1.6844789151137531 1.730276638516318
88.965 0.6617173015322297 3.747811696021361
89.0 -1.5811191443395165 1.1827134060415307
89.035 -2.470081112329468 -1.7401090945889903
89.07 1.4048677025996552 -2.1871238342917954
89.105 -2.240629770298848 0.966495797544666
89.14 -1.2215641934454897 -3.6423323663821465
89.175 3.765660642570327 0.2717140715264419
89.21 -2.7406688909549173 1.9909788494541605
89.245 0.8507078454920576 0.14607541207069819
89.28 2.484385813772491 1.6028970912840128
89.315 -0.3701843202250332 0.6966164570622926
89.35 1.4494551489278473 -3.6733224831084135
89.385 1.8806068854954079 1.8705485650219424
89.42 -0.2874350395937757 -3.3952747318732124
89.455 2.298123477141667 -0.4863211956130309
89.49 -3.1173354197845047 -2.0419866344671043
89.525 2.864243998359602 -0.2627039295147684
89.56 1.9803156414540766 1.6998279989465805
89.595 3.148493665614386 -1.7550079474141143
89.63 -0.8882024195116749 1.333546469449666
89.665 2.8409170455914987 3.1819279372170506
89.7 -3.751767242891985 -3.144572562406502
89.735 1.1155622121314392 0.36066812145130456
89.77 -0.9745212285339937 -3.5530328069603474
89.805 1.5030591681929435 1.6197524942588855
89.84 0.706990627540228 -3.4748566056490127
89.875 -1.4886375062822985 3.192055032188784
89.91 3.1005483324788745 1.5049224915082222
89.945 -0.02827494314424417 -2.9047595617942275
89.98 1.6831120137068005 -3.736788002240675
90.015 2.9600399878706387 2.5205689427263795
90.05 -3.3319177450909407 0.7909131987477167
90.085 3.370771260958348 -3.3236559386808198
90.12 0.27248866856573617 -1.4327570659860074
90.155 -3.7186928214753063 -2.5341333715603422
90.19 -1.5972347502509896 -1.922702472654498
90.225 1.0248197625696847 -3.2631716408726836
90.26 1.4921587065736146 3.640519686912495
90.295 -3.5740170391070256 -2.913335525377261
90.33 -0.783768687565086 -1.3945953813894407
90.365 -0.3702238170810652 -2.150442444955825
90.4 -0.8801338191847803 -2.132417907277744
90.435 0.6275303220482522 3.5318232175763438
90.47 0.6399681762265566 0.6104629094385565
